Time [s], Analyzer Name, Decoded Protocol Result,,,,,,,,,,
0.15435125,SMBus,Write address 0x0B NACK Protocol=Quick Command,,,,,,,,,,
0.284195333333333,SMBus,Write address 0x0B NACK Protocol=Quick Command,,,,,,,,,,
0.414039583333333,SMBus,Write address 0x0B NACK Protocol=Quick Command,,,,,,,,,,
0.543881666666667,SMBus,Write address 0x0B NACK Protocol=Quick Command,,,,,,,,,,
0.673725583333333,SMBus,Write address 0x0B NACK Protocol=Quick Command,,,,,,,,,,
0.8035675,SMBus,Write address 0x0B NACK Protocol=Quick Command,,,,,,,,,,
0.933411583333333,SMBus,Write address 0x0B NACK Protocol=Quick Command,,,,,,,,,,
1.063259,SMBus,Write address 0x0B NACK Protocol=Quick Command,,,,,,,,,,
1.06446025,SMBus,Write address 0x0B NACK Protocol=Quick Command,,,,,,,,,,
1.06557208333333,SMBus,Write address 0x0B NACK Protocol=Quick Command,,,,,,,,,,
1.0669395,SMBus,Write address 0x0B NACK Protocol=Quick Command,,,,,,,,,,
1.06806416666667,SMBus,Write address 0x0B NACK Protocol=Quick Command,,,,,,,,,,
1.0692015,SMBus,Write address 0x0B NACK Protocol=Quick Command,,,,,,,,,,
1.07031341666667,SMBus,Write address 0x0B NACK Protocol=Quick Command,,,,,,,,,,
1.07142516666667,SMBus,Write address 0x0B NACK Protocol=Quick Command,,,,,,,,,,
1.072537,SMBus,Write address 0x0B NACK Protocol=Quick Command,,,,,,,,,,
3.0760145,SMBus,Write address 0x0B NACK Protocol=Quick Command,,,,,,,,,,
3.20587383333333,SMBus,Write address 0x0B NACK Protocol=Quick Command,,,,,,,,,,
3.3357465,SMBus,Write address 0x0B NACK Protocol=Quick Command,,,,,,,,,,
3.4655675,SMBus,Write address 0x0B NACK Protocol=Quick Command,,,,,,,,,,
3.59542741666667,SMBus,Write address 0x0B NACK Protocol=Quick Command,,,,,,,,,,
3.72524866666667,SMBus,Write address 0x0B NACK Protocol=Quick Command,,,,,,,,,,
3.85510825,SMBus,Write address 0x0B NACK Protocol=Quick Command,,,,,,,,,,
3.98492983333333,SMBus,Write address 0x0B NACK Protocol=Quick Command,,,,,,,,,,
3.98641225,SMBus,Write address 0x0B NACK Protocol=Quick Command,,,,,,,,,,
3.98783083333333,SMBus,Write address 0x0B NACK Protocol=Quick Command,,,,,,,,,,
3.98923658333333,SMBus,Write address 0x0B NACK Protocol=Quick Command,,,,,,,,,,
3.99065508333333,SMBus,Write address 0x0B NACK Protocol=Quick Command,,,,,,,,,,
3.99206083333333,SMBus,Write address 0x0B NACK Protocol=Quick Command,,,,,,,,,,
3.993735,SMBus,Write address 0x0B NACK Protocol=Quick Command,,,,,,,,,,
3.99514075,SMBus,Write address 0x0B NACK Protocol=Quick Command,,,,,,,,,,
3.99655925,SMBus,Write address 0x0B NACK Protocol=Quick Command,,,,,,,,,,
4.13878333333333,SMBus,Write address 0x0B NACK Protocol=Quick Command,,,,,,,,,,
4.26860058333333,SMBus,Write address 0x0B NACK Protocol=Quick Command,,,,,,,,,,
4.39844358333333,SMBus,Write address 0x0B NACK Protocol=Quick Command,,,,,,,,,,
4.52828658333333,SMBus,Write address 0x0B NACK Protocol=Quick Command,,,,,,,,,,
4.65812941666667,SMBus,Write address 0x0B NACK Protocol=Quick Command,,,,,,,,,,
4.78798541666667,SMBus,Write address 0x0B NACK Protocol=Quick Command,,,,,,,,,,
4.917828,SMBus,Write address 0x0B NACK Protocol=Quick Command,,,,,,,,,,
5.04767108333333,SMBus,Write address 0x0B NACK Protocol=Quick Command,,,,,,,,,,
5.0491535,SMBus,Write address 0x0B NACK Protocol=Quick Command,,,,,,,,,,
5.05058483333333,SMBus,Write address 0x0B NACK Protocol=Quick Command,,,,,,,,,,
5.05227166666667,SMBus,Write address 0x0B NACK Protocol=Quick Command,,,,,,,,,,
5.05369025,SMBus,Write address 0x0B NACK Protocol=Quick Command,,,,,,,,,,
5.05512158333333,SMBus,Write address 0x0B NACK Protocol=Quick Command,,,,,,,,,,
5.05655291666667,SMBus,Write address 0x0B NACK Protocol=Quick Command,,,,,,,,,,
5.05797141666667,SMBus,Write address 0x0B NACK Protocol=Quick Command,,,,,,,,,,
5.05940275,SMBus,Write address 0x0B NACK Protocol=Quick Command,,,,,,,,,,
7.063248,SMBus,Write address 0x0B NACK Protocol=Quick Command,,,,,,,,,,
7.1929445,SMBus,Write address 0x0B NACK Protocol=Quick Command,,,,,,,,,,
7.322787,SMBus,Write address 0x0B NACK Protocol=Quick Command,,,,,,,,,,
7.45264233333333,SMBus,Write address 0x0B NACK Protocol=Quick Command,,,,,,,,,,
7.58248491666667,SMBus,Write address 0x0B NACK Protocol=Quick Command,,,,,,,,,,
7.71232741666667,SMBus,Write address 0x0B NACK Protocol=Quick Command,,,,,,,,,,
7.84217,SMBus,Write address 0x0B NACK Protocol=Quick Command,,,,,,,,,,
7.9720125,SMBus,Write address 0x0B NACK Protocol=Quick Command,,,,,,,,,,
7.97322658333333,SMBus,Write address 0x0B NACK Protocol=Quick Command,,,,,,,,,,
7.97437675,SMBus,Write address 0x0B NACK Protocol=Quick Command,,,,,,,,,,
7.97551416666667,SMBus,Write address 0x0B NACK Protocol=Quick Command,,,,,,,,,,
7.97666433333333,SMBus,Write address 0x0B NACK Protocol=Quick Command,,,,,,,,,,
7.97807008333333,SMBus,Write address 0x0B NACK Protocol=Quick Command,,,,,,,,,,
7.97922025,SMBus,Write address 0x0B NACK Protocol=Quick Command,,,,,,,,,,
7.98037041666667,SMBus,Write address 0x0B NACK Protocol=Quick Command,,,,,,,,,,
7.98150783333333,SMBus,Write address 0x0B NACK Protocol=Quick Command,,,,,,,,,,
9.98462058333333,SMBus,Write address 0x0B NACK Protocol=Quick Command,,,,,,,,,,
10.1144740833333,SMBus,Write address 0x0B NACK Protocol=Quick Command,,,,,,,,,,
10.2443148333333,SMBus,Write address 0x0B NACK Protocol=Quick Command,,,,,,,,,,
10.3741555,SMBus,Write address 0x0B NACK Protocol=Quick Command,,,,,,,,,,
10.50399625,SMBus,Write address 0x0B NACK Protocol=Quick Command,,,,,,,,,,
10.6338498333333,SMBus,Write address 0x0B NACK Protocol=Quick Command,,,,,,,,,,
10.7636905,SMBus,Write address 0x0B NACK Protocol=Quick Command,,,,,,,,,,
10.89353125,SMBus,Write address 0x0B ACK Protocol=Read byte,,,,,,,,,,
10.8936815,SMBus,Command SpecificationInfo 0x1A,,,,,,,,,,
10.904624,SMBus,Read address 0x0B ACK Protocol=Read byte,,,,,,,,,,
10.9048341666667,SMBus,Byte 0x31 ACK,,,,,,,,,,
10.9050088333333,SMBus,Bad PEC 0x00 should be 0x9D,,,,,,,,,,
10.9061703333333,SMBus,Write address 0x0B ACK Protocol=Read word,,,,,,,,,,
10.9063205833333,SMBus,Command BatteryMode 0x03,,,,,,,,,,
10.9065281666667,SMBus,Read address 0x0B ACK Protocol=Read word,,,,,,,,,,
10.9066546666667,SMBus,BatteryMode 0x8000 INTERNAL_CHARGE_CONTROLLER=0, PRIMARY_BATTERY_SUPPORT=0, CONDITION_FLAG=0, CHARGE_CONTROLLER_ENABLED=0, PRIMARY_BATTERY=0, ALARM_MODE=0, CHARGER_MODE=0, CAPACITY_MODE=1,,,
10.9070379166667,SMBus,PEC 0x41 OK,,,,,,,,,,
10.9083173333333,SMBus,Write address 0x0B ACK Protocol=Write word,,,,,,,,,,
10.9084675833333,SMBus,Command BatteryMode 0x03,,,,,,,,,,
10.9085845,SMBus,BatteryMode 0x8480 INTERNAL_CHARGE_CONTROLLER=0, PRIMARY_BATTERY_SUPPORT=0, CONDITION_FLAG=1, CHARGE_CONTROLLER_ENABLED=0, PRIMARY_BATTERY=0, ALARM_MODE=0, CHARGER_MODE=0, CAPACITY_MODE=1,,,
10.9088651666667,SMBus,PEC 0xC5 OK,,,,,,,,,,
10.91002975,SMBus,Write address 0x0B ACK Protocol=Read word,,,,,,,,,,
10.91018,SMBus,Command BatteryMode 0x03,,,,,,,,,,
10.9103875833333,SMBus,Read address 0x0B ACK Protocol=Read word,,,,,,,,,,
10.9105138333333,SMBus,BatteryMode 0x8480 INTERNAL_CHARGE_CONTROLLER=0, PRIMARY_BATTERY_SUPPORT=0, CONDITION_FLAG=1, CHARGE_CONTROLLER_ENABLED=0, PRIMARY_BATTERY=0, ALARM_MODE=0, CHARGER_MODE=0, CAPACITY_MODE=1,,,
10.910845,SMBus,PEC 0x9C OK,,,,,,,,,,
10.9120745,SMBus,Write address 0x0B ACK Protocol=Read word,,,,,,,,,,
10.9122375,SMBus,Command DesignCapacity 0x18,,,,,,,,,,
10.9124451666667,SMBus,Read address 0x0B ACK Protocol=Read word,,,,,,,,,,
10.9125711666667,SMBus,Word 0x843D ACK,,,,,,,,,,
10.9130053333333,SMBus,PEC 0x4B OK,,,,,,,,,,
10.9141959166667,SMBus,Write address 0x0B ACK Protocol=Read word,,,,,,,,,,
10.9143461666667,SMBus,Command DesignVoltage 0x19,,,,,,,,,,
10.91455375,SMBus,Read address 0x0B ACK Protocol=Read word,,,,,,,,,,
10.9147611666667,SMBus,Word 0x302A ACK,,,,,,,,,,
10.9151019166667,SMBus,PEC 0x23 OK,,,,,,,,,,
10.9165985,SMBus,Write address 0x0B ACK Protocol=Read word,,,,,,,,,,
10.91674875,SMBus,Command ManufactureDate 0x1B,,,,,,,,,,
10.9169563333333,SMBus,Read address 0x0B ACK Protocol=Read word,,,,,,,,,,
10.91716675,SMBus,ManufactureDate 0x1F4D 10/13/1995,,,,,,,,,,
10.9175036666667,SMBus,PEC 0x50 OK,,,,,,,,,,
10.9186944166667,SMBus,Write address 0x0B ACK Protocol=Read word,,,,,,,,,,
10.9188445833333,SMBus,Command SerialNumber 0x1C,,,,,,,,,,
10.91905225,SMBus,Read address 0x0B ACK Protocol=Read word,,,,,,,,,,
10.9191784166667,SMBus,Word 0xD304 ACK,,,,,,,,,,
10.9195479166667,SMBus,PEC 0xDB OK,,,,,,,,,,
10.92079025,SMBus,Write address 0x0B ACK Protocol=Block write,,,,,,,,,,
10.9209405,SMBus,Command ManufacturerName 0x20,,,,,,,,,,
10.9211480833333,SMBus,Read address 0x0B ACK Protocol=Block write,,,,,,,,,,
10.9213585,SMBus,Byte count 0x04,,,,,,,,,,
10.9215341666667,SMBus,Byte 0x53 ACK,,,,,,,,,,
10.9217136666667,SMBus,Byte 0x4F ACK,,,,,,,,,,
10.9218921666667,SMBus,Byte 0x4E ACK,,,,,,,,,,
10.9220715833333,SMBus,Byte 0x59 ACK,,,,,,,,,,
10.92224725,SMBus,PEC 0x30 OK,,,,,,,,,,
10.9234611666667,SMBus,Write address 0x0B ACK Protocol=Block write,,,,,,,,,,
10.9236114166667,SMBus,Command DeviceName 0x21,,,,,,,,,,
10.923819,SMBus,Read address 0x0B ACK Protocol=Block write,,,,,,,,,,
10.9240301666667,SMBus,Byte count 0x0B,,,,,,,,,,
10.92420575,SMBus,Byte 0x4C ACK,,,,,,,,,,
10.92438425,SMBus,Byte 0x4E ACK,,,,,,,,,,
10.92456375,SMBus,Byte 0x56 ACK,,,,,,,,,,
10.9247421666667,SMBus,Byte 0x2D ACK,,,,,,,,,,
10.92492075,SMBus,Byte 0x34 ACK,,,,,,,,,,
10.9251001666667,SMBus,Byte 0x32 ACK,,,,,,,,,,
10.92527875,SMBus,Byte 0x54 ACK,,,,,,,,,,
10.92545825,SMBus,Byte 0x34 ACK,,,,,,,,,,
10.92563675,SMBus,Byte 0x37 ACK,,,,,,,,,,
10.92581525,SMBus,Byte 0x36 ACK,,,,,,,,,,
10.92599475,SMBus,Byte 0x35 ACK,,,,,,,,,,
10.9261166666667,SMBus,PEC 0xDD OK,,,,,,,,,,
10.9273973333333,SMBus,Write address 0x0B ACK Protocol=Block write,,,,,,,,,,
10.9275475,SMBus,Command DeviceChemistry 0x22,,,,,,,,,,
10.9277551666667,SMBus,Read address 0x0B ACK Protocol=Block write,,,,,,,,,,
10.9279679166667,SMBus,Byte count 0x04,,,,,,,,,,
10.92814175,SMBus,Byte 0x4C ACK,,,,,,,,,,
10.9283201666667,SMBus,Byte 0x49 ACK,,,,,,,,,,
10.9284996666667,SMBus,Byte 0x4F ACK,,,,,,,,,,
10.9286781666667,SMBus,Byte 0x4E ACK,,,,,,,,,,
10.92885475,SMBus,PEC 0x31 OK,,,,,,,,,,
10.9301449166667,SMBus,Write address 0x0B ACK Protocol=Process call,,,,,,,,,,
10.9302951666667,SMBus,Command OptionalMfgFunction4 0x3C,,,,,,,,,,
10.93043575,SMBus,Byte count 0x04,,,,,,,,,,
10.9305763333333,SMBus,Byte 0x2A ACK,,,,,,,,,,
10.9307169166667,SMBus,Byte 0x35 ACK,,,,,,,,,,
10.9308575,SMBus,Byte 0x00 ACK,,,,,,,,,,
10.930998,SMBus,Byte 0x00 ACK,,,,,,,,,,
10.9311148333333,SMBus,PEC 0xAD OK,,,,,,,,,,
11.0363699166667,SMBus,Write address 0x0B ACK Protocol=Block write,,,,,,,,,,
11.0365200833333,SMBus,Command OptionalMfgFunction4 0x3C,,,,,,,,,,
11.03672775,SMBus,Read address 0x0B ACK Protocol=Block write,,,,,,,,,,
11.0369911666667,SMBus,Byte count 0x0A,,,,,,,,,,
11.037165,SMBus,Byte 0x4C ACK,,,,,,,,,,
11.0373445,SMBus,Byte 0x45 ACK,,,,,,,,,,
11.0375230833333,SMBus,Byte 0x4E ACK,,,,,,,,,,
11.0377016666667,SMBus,Byte 0x4F ACK,,,,,,,,,,
11.0378811666667,SMBus,Byte 0x56 ACK,,,,,,,,,,
11.03805975,SMBus,Byte 0x4F ACK,,,,,,,,,,
11.0381819166667,SMBus,Byte 0xD2 ACK,,,,,,,,,,
11.0383608333333,SMBus,Byte 0xB0 ACK,,,,,,,,,,
11.0385963333333,SMBus,Byte 0x1A ACK,,,,,,,,,,
11.0387768333333,SMBus,Byte 0x0D ACK,,,,,,,,,,
11.0389515833333,SMBus,PEC 0x71 OK,,,,,,,,,,
11.0402165833333,SMBus,Write address 0x0B ACK Protocol=Read word,,,,,,,,,,
11.04036675,SMBus,Command <error> 0x35,,,,,,,,,,
11.0405744166667,SMBus,Read address 0x0B ACK Protocol=Read word,,,,,,,,,,
11.0407003333333,SMBus,Word 0x8000 ACK,,,,,,,,,,
11.0410701666667,SMBus,PEC 0x9C OK,,,,,,,,,,
11.0423124166667,SMBus,Write address 0x0B ACK Protocol=Block write,,,,,,,,,,
11.0424626666667,SMBus,Command <error> 0x37,,,,,,,,,,
11.04267025,SMBus,Read address 0x0B ACK Protocol=Block write,,,,,,,,,,
11.042884,SMBus,Byte count 0x08,,,,,,,,,,
11.0430568333333,SMBus,Byte 0x04 ACK,,,,,,,,,,
11.0432354166667,SMBus,Byte 0x00 ACK,,,,,,,,,,
11.0434140833333,SMBus,Byte 0x3D ACK,,,,,,,,,,
11.0435935833333,SMBus,Byte 0x5E ACK,,,,,,,,,,
11.0437721666667,SMBus,Byte 0x61 ACK,,,,,,,,,,
11.0439516666667,SMBus,Byte 0x01 ACK,,,,,,,,,,
11.04413025,SMBus,Byte 0x40 ACK,,,,,,,,,,
11.0443088333333,SMBus,Byte 0x01 ACK,,,,,,,,,,
11.0444311666667,SMBus,PEC 0xFA OK,,,,,,,,,,
11.0457373333333,SMBus,Write address 0x0B ACK Protocol=Block write,,,,,,,,,,
11.0458875833333,SMBus,Command OptionalMfgFunction5 0x2F,,,,,,,,,,
11.0460951666667,SMBus,Read address 0x0B ACK Protocol=Block write,,,,,,,,,,
11.0463083333333,SMBus,Byte count 0x0B,,,,,,,,,,
11.0464811666667,SMBus,Byte 0x31 ACK,,,,,,,,,,
11.04666075,SMBus,Byte 0x5A ACK,,,,,,,,,,
11.0468393333333,SMBus,Byte 0x37 ACK,,,,,,,,,,
11.0470179166667,SMBus,Byte 0x53 ACK,,,,,,,,,,
11.0471974166667,SMBus,Byte 0x53 ACK,,,,,,,,,,
11.047376,SMBus,Byte 0x33 ACK,,,,,,,,,,
11.0475555,SMBus,Byte 0x33 ACK,,,,,,,,,,
11.0477340833333,SMBus,Byte 0x43 ACK,,,,,,,,,,
11.0479126666667,SMBus,Byte 0x31 ACK,,,,,,,,,,
11.04809225,SMBus,Byte 0x32 ACK,,,,,,,,,,
11.04827075,SMBus,Byte 0x31 ACK,,,,,,,,,,
11.0483928333333,SMBus,PEC 0xF2 OK,,,,,,,,,,
11.0496735,SMBus,Write address 0x0B ACK Protocol=Read word,,,,,,,,,,
11.04982375,SMBus,Command OptionalMfgFunction2 0x3E,,,,,,,,,,
11.0500313333333,SMBus,Read address 0x0B ACK Protocol=Read word,,,,,,,,,,
11.0502559166667,SMBus,Word 0x0100 ACK,,,,,,,,,,
11.0505398333333,SMBus,PEC 0xB5 OK,,,,,,,,,,
11.0517693333333,SMBus,Write address 0x0B ACK Protocol=Read word,,,,,,,,,,
11.0519195833333,SMBus,Command OptionalMfgFunction1 0x3F,,,,,,,,,,
11.0521271666667,SMBus,Read address 0x0B ACK Protocol=Read word,,,,,,,,,,
11.05235675,SMBus,Word 0x244D ACK,,,,,,,,,,
11.0526356666667,SMBus,PEC 0xA8 OK,,,,,,,,,,
11.0539546666667,SMBus,Write address 0x0B ACK Protocol=Read word,,,,,,,,,,
11.0541049166667,SMBus,Command OptionalMfgFunction1 0x3F,,,,,,,,,,
11.0543125,SMBus,Read address 0x0B ACK Protocol=Read word,,,,,,,,,,
11.0545425833333,SMBus,Word 0x244D ACK,,,,,,,,,,
11.054821,SMBus,PEC 0xA8 OK,,,,,,,,,,
11.05614,SMBus,Write address 0x0B ACK Protocol=Read word,,,,,,,,,,
11.05629025,SMBus,Command ManufacturerAccess 0x00,,,,,,,,,,
11.0564978333333,SMBus,Read address 0x0B ACK Protocol=Read word,,,,,,,,,,
11.0566678333333,SMBus,Word 0x1800 ACK,,,,,,,,,,
11.0570076666667,SMBus,PEC 0x32 OK,,,,,,,,,,
11.0581975,SMBus,Write address 0x0B ACK Protocol=Read word,,,,,,,,,,
11.05834775,SMBus,Command BatteryStatus 0x16,,,,,,,,,,
11.0585553333333,SMBus,Read address 0x0B ACK Protocol=Read word,,,,,,,,,,
11.05868175,SMBus,BatteryStatus 0x8000 OVER CHARGED ALARM=1, TERMINATE CHARGE ALARM=0, OVER TEMP ALARM=0, TERMINATE DISCHARGE ALARM=0, REMAINING CAPACITY ALARM=0, REMAINING TIME ALARM=0, INITIALIZED=0, DISCHARGING=0, FULLY CHARGED=0, FULLY DISCHARGED=0, ErrorCode=OK
11.0590901666667,SMBus,PEC 0x68 OK,,,,,,,,,,
11.0602678333333,SMBus,Write address 0x0B ACK Protocol=Read word,,,,,,,,,,
11.060418,SMBus,Command ChargingCurrent 0x14,,,,,,,,,,
11.0606256666667,SMBus,Read address 0x0B ACK Protocol=Read word,,,,,,,,,,
11.0607516666667,SMBus,Word 0xCFF9 ACK,,,,,,,,,,
11.0611600833333,SMBus,PEC 0x3D OK,,,,,,,,,,
11.0623253333333,SMBus,Write address 0x0B ACK Protocol=Read word,,,,,,,,,,
11.0624755833333,SMBus,Command ChargingVoltage 0x15,,,,,,,,,,
11.0626831666667,SMBus,Read address 0x0B ACK Protocol=Read word,,,,,,,,,,
11.0628855,SMBus,Word 0x3831 ACK,,,,,,,,,,
11.06321775,SMBus,PEC 0x22 OK,,,,,,,,,,
11.0646256666667,SMBus,Write address 0x0B ACK Protocol=Read word,,,,,,,,,,
11.0647759166667,SMBus,Command Temperature 0x08,,,,,,,,,,
11.0649835,SMBus,Read address 0x0B ACK Protocol=Read word,,,,,,,,,,
11.0651096666667,SMBus,Word 0xD374 ACK,,,,,,,,,,
11.0654536666667,SMBus,PEC 0xB3 OK,,,,,,,,,,
11.06670875,SMBus,Write address 0x0B ACK Protocol=Read word,,,,,,,,,,
11.066859,SMBus,Command <error> 0x3B,,,,,,,,,,
11.0670665833333,SMBus,Read address 0x0B ACK Protocol=Read word,,,,,,,,,,
11.0671924166667,SMBus,Word 0xD374 ACK,,,,,,,,,,
11.06762675,SMBus,PEC 0x20 OK,,,,,,,,,,
11.0687918333333,SMBus,Write address 0x0B ACK Protocol=Read word,,,,,,,,,,
11.0689420833333,SMBus,Command Voltage 0x09,,,,,,,,,,
11.0691496666667,SMBus,Read address 0x0B ACK Protocol=Read word,,,,,,,,,,
11.0692763333333,SMBus,Word 0xEFFD ACK,,,,,,,,,,
11.06968375,SMBus,PEC 0x16 OK,,,,,,,,,,
11.0708620833333,SMBus,Write address 0x0B ACK Protocol=Read word,,,,,,,,,,
11.0710123333333,SMBus,Command RemainingCapacity 0x0F,,,,,,,,,,
11.0712199166667,SMBus,Read address 0x0B ACK Protocol=Read word,,,,,,,,,,
11.071413,SMBus,Word 0x192C ACK,,,,,,,,,,
11.0717415,SMBus,PEC 0x31 OK,,,,,,,,,,
11.0729324166667,SMBus,Write address 0x0B ACK Protocol=Read word,,,,,,,,,,
11.0730826666667,SMBus,Command FullChargeCapacity 0x10,,,,,,,,,,
11.07329025,SMBus,Read address 0x0B ACK Protocol=Read word,,,,,,,,,,
11.0734859166667,SMBus,Word 0x4580 ACK,,,,,,,,,,
11.073824,SMBus,PEC 0x39 OK,,,,,,,,,,
11.0752838333333,SMBus,Write address 0x0B ACK Protocol=Read word,,,,,,,,,,
11.0754340833333,SMBus,Command Current 0x0A,,,,,,,,,,
11.0756416666667,SMBus,Read address 0x0B ACK Protocol=Read word,,,,,,,,,,
11.0757675,SMBus,Word 0xF735 ACK,,,,,,,,,,
11.0761118333333,SMBus,PEC 0xA5 OK,,,,,,,,,,
11.0773541666667,SMBus,Write address 0x0B ACK Protocol=Read word,,,,,,,,,,
11.0775044166667,SMBus,Command RunTimeToEmpty 0x11,,,,,,,,,,
11.077712,SMBus,Read address 0x0B ACK Protocol=Read word,,,,,,,,,,
11.0778384166667,SMBus,Word 0xC67F ACK,,,,,,,,,,
11.0782468333333,SMBus,PEC 0x55 OK,,,,,,,,,,
11.07945,SMBus,Write address 0x0B ACK Protocol=Read word,,,,,,,,,,
11.07960025,SMBus,Command AverageCurrent 0x0B,,,,,,,,,,
11.0798078333333,SMBus,Read address 0x0B ACK Protocol=Read word,,,,,,,,,,
11.0799343333333,SMBus,Word 0xE9EF ACK,,,,,,,,,,
11.0803418333333,SMBus,PEC 0x3A OK,,,,,,,,,,
11.0815330833333,SMBus,Write address 0x0B ACK Protocol=Read word,,,,,,,,,,
11.0816833333333,SMBus,Command AverageTimeToFull 0x13,,,,,,,,,,
11.0818909166667,SMBus,Read address 0x0B ACK Protocol=Read word,,,,,,,,,,
11.0820900833333,SMBus,Word 0x7895 ACK,,,,,,,,,,
11.08242525,SMBus,PEC 0x78 OK,,,,,,,,,,
11.0836034166667,SMBus,Write address 0x0B ACK Protocol=Read word,,,,,,,,,,
11.0837536666667,SMBus,Command AverageTimeToEmpty 0x12,,,,,,,,,,
11.08396125,SMBus,Read address 0x0B ACK Protocol=Read word,,,,,,,,,,
11.0840876666667,SMBus,Word 0xC67F ACK,,,,,,,,,,
11.084496,SMBus,PEC 0x6F OK,,,,,,,,,,
11.0856865,SMBus,Write address 0x0B ACK Protocol=Read word,,,,,,,,,,
11.08583675,SMBus,Command CycleCount 0x17,,,,,,,,,,
11.0860443333333,SMBus,Read address 0x0B ACK Protocol=Read word,,,,,,,,,,
11.0862496666667,SMBus,Word 0x6A02 ACK,,,,,,,,,,
11.08652725,SMBus,PEC 0xB1 OK,,,,,,,,,,
11.0877823333333,SMBus,Write address 0x0B ACK Protocol=Read word,,,,,,,,,,
11.0879325833333,SMBus,Command MaxError 0x0C,,,,,,,,,,
11.0881401666667,SMBus,Read address 0x0B ACK Protocol=Read word,,,,,,,,,,
11.0883279166667,SMBus,Word 0x0200 ACK,,,,,,,,,,
11.0886621666667,SMBus,PEC 0x0F OK,,,,,,,,,,
11.0898398333333,SMBus,Write address 0x0B ACK Protocol=Read word,,,,,,,,,,
11.0899900833333,SMBus,Command RelativeStateOfCharge 0x0D,,,,,,,,,,
11.0901976666667,SMBus,Read address 0x0B ACK Protocol=Read word,,,,,,,,,,
11.0903235,SMBus,Word 0xF59B ACK,,,,,,,,,,
11.0906679166667,SMBus,PEC 0xAE OK,,,,,,,,,,
11.0919101666667,SMBus,Write address 0x0B ACK Protocol=Block write,,,,,,,,,,
11.0920604166667,SMBus,Command ManufacturerData 0x23,,,,,,,,,,
11.092268,SMBus,Read address 0x0B ACK Protocol=Block write,,,,,,,,,,
11.0924783333333,SMBus,Byte count 0x0C,,,,,,,,,,
11.0926540833333,SMBus,Byte 0x42 ACK,,,,,,,,,,
11.0928335833333,SMBus,Byte 0x0A ACK,,,,,,,,,,
11.0930121666667,SMBus,Byte 0x05 ACK,,,,,,,,,,
11.09319075,SMBus,Byte 0x12 ACK,,,,,,,,,,
11.09331325,SMBus,Byte 0x86 ACK,,,,,,,,,,
11.0935488333333,SMBus,Byte 0x0F ACK,,,,,,,,,,
11.0936710833333,SMBus,Byte 0x86 ACK,,,,,,,,,,
11.0939069166667,SMBus,Byte 0x0F ACK,,,,,,,,,,
11.0940289166667,SMBus,Byte 0x86 ACK,,,,,,,,,,
11.094265,SMBus,Byte 0x0F ACK,,,,,,,,,,
11.09438675,SMBus,Byte 0x86 ACK,,,,,,,,,,
11.0946220833333,SMBus,Byte 0x0F ACK,,,,,,,,,,
11.09479875,SMBus,PEC 0x1B OK,,,,,,,,,,
11.0960124166667,SMBus,Write address 0x0B ACK Protocol=Block write,,,,,,,,,,
11.0961626666667,SMBus,Command <error> 0x30,,,,,,,,,,
11.09637025,SMBus,Read address 0x0B ACK Protocol=Block write,,,,,,,,,,
11.09658225,SMBus,Byte count 0x0A,,,,,,,,,,
11.096757,SMBus,Byte 0x09 ACK,,,,,,,,,,
11.09687875,SMBus,Byte 0xEB ACK,,,,,,,,,,
11.097115,SMBus,Byte 0x1A ACK,,,,,,,,,,
11.0972365833333,SMBus,Byte 0xC1 ACK,,,,,,,,,,
11.0974720833333,SMBus,Byte 0x09 ACK,,,,,,,,,,
11.0976525,SMBus,Byte 0x15 ACK,,,,,,,,,,
11.0978301666667,SMBus,Byte 0x00 ACK,,,,,,,,,,
11.0980086666667,SMBus,Byte 0x00 ACK,,,,,,,,,,
11.09818825,SMBus,Byte 0x00 ACK,,,,,,,,,,
11.09836775,SMBus,Byte 0x00 ACK,,,,,,,,,,
11.0985443333333,SMBus,PEC 0x5A OK,,,,,,,,,,
11.1004341666667,SMBus,Write address 0x0B ACK Protocol=Read word,,,,,,,,,,
11.1005844166667,SMBus,Command ManufacturerAccess 0x00,,,,,,,,,,
11.100792,SMBus,Read address 0x0B ACK Protocol=Read word,,,,,,,,,,
11.1009626666667,SMBus,Word 0x1800 ACK,,,,,,,,,,
11.1013006666667,SMBus,PEC 0x32 OK,,,,,,,,,,
11.10251725,SMBus,Write address 0x0B ACK Protocol=Read word,,,,,,,,,,
11.1026675,SMBus,Command BatteryStatus 0x16,,,,,,,,,,
11.1028750833333,SMBus,Read address 0x0B ACK Protocol=Read word,,,,,,,,,,
11.1030015833333,SMBus,BatteryStatus 0x8000 OVER CHARGED ALARM=1, TERMINATE CHARGE ALARM=0, OVER TEMP ALARM=0, TERMINATE DISCHARGE ALARM=0, REMAINING CAPACITY ALARM=0, REMAINING TIME ALARM=0, INITIALIZED=0, DISCHARGING=0, FULLY CHARGED=0, FULLY DISCHARGED=0, ErrorCode=OK
11.103409,SMBus,PEC 0x68 OK,,,,,,,,,,
11.10486875,SMBus,Write address 0x0B ACK Protocol=Read word,,,,,,,,,,
11.1050189166667,SMBus,Command ChargingCurrent 0x14,,,,,,,,,,
11.1052265833333,SMBus,Read address 0x0B ACK Protocol=Read word,,,,,,,,,,
11.1053523333333,SMBus,Word 0xCFF9 ACK,,,,,,,,,,
11.10576075,SMBus,PEC 0x3D OK,,,,,,,,,,
11.10698375,SMBus,Write address 0x0B ACK Protocol=Read word,,,,,,,,,,
11.1071403333333,SMBus,Command ChargingVoltage 0x15,,,,,,,,,,
11.107348,SMBus,Read address 0x0B ACK Protocol=Read word,,,,,,,,,,
11.1075501666667,SMBus,Word 0x3831 ACK,,,,,,,,,,
11.1078834166667,SMBus,PEC 0x22 OK,,,,,,,,,,
11.1091243333333,SMBus,Write address 0x0B ACK Protocol=Read word,,,,,,,,,,
11.1092745833333,SMBus,Command Temperature 0x08,,,,,,,,,,
11.1094821666667,SMBus,Read address 0x0B ACK Protocol=Read word,,,,,,,,,,
11.1096084166667,SMBus,Word 0xD374 ACK,,,,,,,,,,
11.1099523333333,SMBus,PEC 0xB3 OK,,,,,,,,,,
11.1112201666667,SMBus,Write address 0x0B ACK Protocol=Read word,,,,,,,,,,
11.1113704166667,SMBus,Command <error> 0x3B,,,,,,,,,,
11.111578,SMBus,Read address 0x0B ACK Protocol=Read word,,,,,,,,,,
11.1117045,SMBus,Word 0xD374 ACK,,,,,,,,,,
11.11213875,SMBus,PEC 0x20 OK,,,,,,,,,,
11.1133544166667,SMBus,Write address 0x0B ACK Protocol=Read word,,,,,,,,,,
11.1135045833333,SMBus,Command Voltage 0x09,,,,,,,,,,
11.11371225,SMBus,Read address 0x0B ACK Protocol=Read word,,,,,,,,,,
11.1138388333333,SMBus,Word 0xEFFD ACK,,,,,,,,,,
11.114233,SMBus,PEC 0x16 OK,,,,,,,,,,
11.1157185833333,SMBus,Write address 0x0B ACK Protocol=Read word,,,,,,,,,,
11.1158688333333,SMBus,Command RemainingCapacity 0x0F,,,,,,,,,,
11.1160764166667,SMBus,Read address 0x0B ACK Protocol=Read word,,,,,,,,,,
11.1162699166667,SMBus,Word 0x192C ACK,,,,,,,,,,
11.1166118333333,SMBus,PEC 0x31 OK,,,,,,,,,,
11.1178145,SMBus,Write address 0x0B ACK Protocol=Read word,,,,,,,,,,
11.11796475,SMBus,Command FullChargeCapacity 0x10,,,,,,,,,,
11.1181723333333,SMBus,Read address 0x0B ACK Protocol=Read word,,,,,,,,,,
11.11836775,SMBus,Word 0x4580 ACK,,,,,,,,,,
11.11870675,SMBus,PEC 0x39 OK,,,,,,,,,,
11.1199230833333,SMBus,Write address 0x0B ACK Protocol=Read word,,,,,,,,,,
11.1200733333333,SMBus,Command Current 0x0A,,,,,,,,,,
11.1202809166667,SMBus,Read address 0x0B ACK Protocol=Read word,,,,,,,,,,
11.1204068333333,SMBus,Word 0xF735 ACK,,,,,,,,,,
11.1207511666667,SMBus,PEC 0xA5 OK,,,,,,,,,,
11.12203175,SMBus,Write address 0x0B ACK Protocol=Read word,,,,,,,,,,
11.122182,SMBus,Command RunTimeToEmpty 0x11,,,,,,,,,,
11.1223895833333,SMBus,Read address 0x0B ACK Protocol=Read word,,,,,,,,,,
11.1225153333333,SMBus,Word 0xC67F ACK,,,,,,,,,,
11.12292375,SMBus,PEC 0x55 OK,,,,,,,,,,
11.124396,SMBus,Write address 0x0B ACK Protocol=Read word,,,,,,,,,,
11.12454625,SMBus,Command AverageCurrent 0x0B,,,,,,,,,,
11.1247538333333,SMBus,Read address 0x0B ACK Protocol=Read word,,,,,,,,,,
11.12487975,SMBus,Word 0xE9EF ACK,,,,,,,,,,
11.12527575,SMBus,PEC 0x3A OK,,,,,,,,,,
11.1264790833333,SMBus,Write address 0x0B ACK Protocol=Read word,,,,,,,,,,
11.1266293333333,SMBus,Command AverageTimeToFull 0x13,,,,,,,,,,
11.1268369166667,SMBus,Read address 0x0B ACK Protocol=Read word,,,,,,,,,,
11.1270364166667,SMBus,Word 0x7895 ACK,,,,,,,,,,
11.1273716666667,SMBus,PEC 0x78 OK,,,,,,,,,,
11.1285749166667,SMBus,Write address 0x0B ACK Protocol=Read word,,,,,,,,,,
11.1287251666667,SMBus,Command AverageTimeToEmpty 0x12,,,,,,,,,,
11.12893275,SMBus,Read address 0x0B ACK Protocol=Read word,,,,,,,,,,
11.1290590833333,SMBus,Word 0xC67F ACK,,,,,,,,,,
11.1294674166667,SMBus,PEC 0x6F OK,,,,,,,,,,
11.1306835833333,SMBus,Write address 0x0B ACK Protocol=Read word,,,,,,,,,,
11.1308338333333,SMBus,Command CycleCount 0x17,,,,,,,,,,
11.1310414166667,SMBus,Read address 0x0B ACK Protocol=Read word,,,,,,,,,,
11.13124625,SMBus,Word 0x6A02 ACK,,,,,,,,,,
11.1315243333333,SMBus,PEC 0xB1 OK,,,,,,,,,,
11.1327794166667,SMBus,Write address 0x0B ACK Protocol=Read word,,,,,,,,,,
11.1329296666667,SMBus,Command MaxError 0x0C,,,,,,,,,,
11.13313725,SMBus,Read address 0x0B ACK Protocol=Read word,,,,,,,,,,
11.1333259166667,SMBus,Word 0x0200 ACK,,,,,,,,,,
11.1336591666667,SMBus,PEC 0x0F OK,,,,,,,,,,
11.1351180833333,SMBus,Write address 0x0B ACK Protocol=Read word,,,,,,,,,,
11.1352683333333,SMBus,Command RelativeStateOfCharge 0x0D,,,,,,,,,,
11.1354759166667,SMBus,Read address 0x0B ACK Protocol=Read word,,,,,,,,,,
11.1356021666667,SMBus,Word 0xF59B ACK,,,,,,,,,,
11.1359460833333,SMBus,PEC 0xAE OK,,,,,,,,,,
11.137214,SMBus,Write address 0x0B ACK Protocol=Block write,,,,,,,,,,
11.1373641666667,SMBus,Command ManufacturerData 0x23,,,,,,,,,,
11.13757175,SMBus,Read address 0x0B ACK Protocol=Block write,,,,,,,,,,
11.1377825,SMBus,Byte count 0x0C,,,,,,,,,,
11.1379581666667,SMBus,Byte 0x42 ACK,,,,,,,,,,
11.1381366666667,SMBus,Byte 0x0A ACK,,,,,,,,,,
11.1383161666667,SMBus,Byte 0x05 ACK,,,,,,,,,,
11.1384946666667,SMBus,Byte 0x12 ACK,,,,,,,,,,
11.1386170833333,SMBus,Byte 0x86 ACK,,,,,,,,,,
11.13885375,SMBus,Byte 0x0F ACK,,,,,,,,,,
11.1389749166667,SMBus,Byte 0x86 ACK,,,,,,,,,,
11.1392118333333,SMBus,Byte 0x0F ACK,,,,,,,,,,
11.13933275,SMBus,Byte 0x86 ACK,,,,,,,,,,
11.1395688333333,SMBus,Byte 0x0F ACK,,,,,,,,,,
11.1396905833333,SMBus,Byte 0x86 ACK,,,,,,,,,,
11.139926,SMBus,Byte 0x0F ACK,,,,,,,,,,
11.1401025833333,SMBus,PEC 0x1B OK,,,,,,,,,,
11.1413545833333,SMBus,Write address 0x0B ACK Protocol=Block write,,,,,,,,,,
11.14150475,SMBus,Command <error> 0x30,,,,,,,,,,
11.1417124166667,SMBus,Read address 0x0B ACK Protocol=Block write,,,,,,,,,,
11.1419251666667,SMBus,Byte count 0x0A,,,,,,,,,,
11.1420989166667,SMBus,Byte 0x09 ACK,,,,,,,,,,
11.1422209166667,SMBus,Byte 0xEB ACK,,,,,,,,,,
11.1424569166667,SMBus,Byte 0x1A ACK,,,,,,,,,,
11.14257875,SMBus,Byte 0xC1 ACK,,,,,,,,,,
11.142814,SMBus,Byte 0x09 ACK,,,,,,,,,,
11.1429935,SMBus,Byte 0x15 ACK,,,,,,,,,,
11.143172,SMBus,Byte 0x00 ACK,,,,,,,,,,
11.1433514166667,SMBus,Byte 0x00 ACK,,,,,,,,,,
11.14353,SMBus,Byte 0x00 ACK,,,,,,,,,,
11.1437094166667,SMBus,Byte 0x00 ACK,,,,,,,,,,
11.143886,SMBus,PEC 0x5A OK,,,,,,,,,,
13.1478455833333,SMBus,Write address 0x0B ACK Protocol=Read word,,,,,,,,,,
13.1479958333333,SMBus,Command ManufacturerAccess 0x00,,,,,,,,,,
13.1482034166667,SMBus,Read address 0x0B ACK Protocol=Read word,,,,,,,,,,
13.1483748333333,SMBus,Word 0x1800 ACK,,,,,,,,,,
13.1487119166667,SMBus,PEC 0x32 OK,,,,,,,,,,
13.1499286666667,SMBus,Write address 0x0B ACK Protocol=Read word,,,,,,,,,,
13.1500789166667,SMBus,Command BatteryStatus 0x16,,,,,,,,,,
13.1502865,SMBus,Read address 0x0B ACK Protocol=Read word,,,,,,,,,,
13.1504123333333,SMBus,BatteryStatus 0x900A OVER CHARGED ALARM=1, TERMINATE CHARGE ALARM=0, OVER TEMP ALARM=1, TERMINATE DISCHARGE ALARM=0, REMAINING CAPACITY ALARM=0, REMAINING TIME ALARM=0, INITIALIZED=0, DISCHARGING=0, FULLY CHARGED=0, FULLY DISCHARGED=0, ErrorCode=ReservedCommand
13.1508206666667,SMBus,PEC 0x09 OK,,,,,,,,,,
13.1522929166667,SMBus,Write address 0x0B ACK Protocol=Read word,,,,,,,,,,
13.1524430833333,SMBus,Command ChargingCurrent 0x14,,,,,,,,,,
13.15265075,SMBus,Read address 0x0B ACK Protocol=Read word,,,,,,,,,,
13.15277725,SMBus,Word 0xE40C ACK,,,,,,,,,,
13.1531335833333,SMBus,PEC 0xC1 OK,,,,,,,,,,
13.15438875,SMBus,Write address 0x0B ACK Protocol=Read word,,,,,,,,,,
13.154539,SMBus,Command ChargingVoltage 0x15,,,,,,,,,,
13.1547465833333,SMBus,Read address 0x0B ACK Protocol=Read word,,,,,,,,,,
13.1549485,SMBus,Word 0x3831 ACK,,,,,,,,,,
13.1552806666667,SMBus,PEC 0x22 OK,,,,,,,,,,
13.1564974166667,SMBus,Write address 0x0B ACK Protocol=Read word,,,,,,,,,,
13.1566475833333,SMBus,Command Temperature 0x08,,,,,,,,,,
13.15685525,SMBus,Read address 0x0B ACK Protocol=Read word,,,,,,,,,,
13.15698125,SMBus,Word 0x9C0B ACK,,,,,,,,,,
13.15737725,SMBus,PEC 0x51 OK,,,,,,,,,,
13.158606,SMBus,Write address 0x0B ACK Protocol=Read word,,,,,,,,,,
13.15875625,SMBus,Command <error> 0x3B,,,,,,,,,,
13.1589638333333,SMBus,Read address 0x0B ACK Protocol=Read word,,,,,,,,,,
13.15909025,SMBus,Word 0x9C0B ACK,,,,,,,,,,
13.1594723333333,SMBus,PEC 0xC2 OK,,,,,,,,,,
13.160753,SMBus,Write address 0x0B ACK Protocol=Read word,,,,,,,,,,
13.16090325,SMBus,Command Voltage 0x09,,,,,,,,,,
13.1611108333333,SMBus,Read address 0x0B ACK Protocol=Read word,,,,,,,,,,
13.1612370833333,SMBus,Word 0xA81D ACK,,,,,,,,,,
13.161581,SMBus,PEC 0x88 OK,,,,,,,,,,
13.1629639166667,SMBus,Write address 0x0B ACK Protocol=Read word,,,,,,,,,,
13.1631140833333,SMBus,Command RemainingCapacity 0x0F,,,,,,,,,,
13.1633216666667,SMBus,Read address 0x0B ACK Protocol=Read word,,,,,,,,,,
13.16351475,SMBus,Word 0x0000 ACK,,,,,,,,,,
13.1638431666667,SMBus,PEC 0x1F OK,,,,,,,,,,
13.1654430833333,SMBus,Write address 0x0B ACK Protocol=Read word,,,,,,,,,,
13.1655933333333,SMBus,Command FullChargeCapacity 0x10,,,,,,,,,,
13.1658009166667,SMBus,Read address 0x0B ACK Protocol=Read word,,,,,,,,,,
13.1659275,SMBus,Word 0xC60D ACK,,,,,,,,,,
13.1663349166667,SMBus,PEC 0x1A OK,,,,,,,,,,
13.1675325833333,SMBus,Write address 0x0B ACK Protocol=Read word,,,,,,,,,,
13.16768925,SMBus,Command Current 0x0A,,,,,,,,,,
13.1678968333333,SMBus,Read address 0x0B ACK Protocol=Read word,,,,,,,,,,
13.1680838333333,SMBus,Word 0x0000 ACK,,,,,,,,,,
13.1684179166667,SMBus,PEC 0x51 OK,,,,,,,,,,
13.1696348333333,SMBus,Write address 0x0B ACK Protocol=Read word,,,,,,,,,,
13.1697850833333,SMBus,Command Temperature 0x08,,,,,,,,,,
13.1699926666667,SMBus,Read address 0x0B ACK Protocol=Read word,,,,,,,,,,
13.1701185833333,SMBus,Word 0xFFFF ACK,,,,,,,,,,
13.1704756666667,SMBus,Bad PEC 0x98 should be 0x59,,,,,,,,,,
13.1719990833333,SMBus,Write address 0x0B ACK Protocol=Read word,,,,,,,,,,
13.1721493333333,SMBus,Command AverageCurrent 0x0B,,,,,,,,,,
13.1723569166667,SMBus,Read address 0x0B ACK Protocol=Read word,,,,,,,,,,
13.1725443333333,SMBus,Word 0x0000 ACK,,,,,,,,,,
13.1728785,SMBus,PEC 0x47 OK,,,,,,,,,,
13.1740821666667,SMBus,Write address 0x0B ACK Protocol=Read word,,,,,,,,,,
13.1742324166667,SMBus,Command AverageTimeToFull 0x13,,,,,,,,,,
13.17444,SMBus,Read address 0x0B ACK Protocol=Read word,,,,,,,,,,
13.1745665833333,SMBus,Word 0xFFFF ACK,,,,,,,,,,
13.1749229166667,SMBus,PEC 0xB4 OK,,,,,,,,,,
13.176178,SMBus,Write address 0x0B ACK Protocol=Read word,,,,,,,,,,
13.17632825,SMBus,Command AverageTimeToEmpty 0x12,,,,,,,,,,
13.1765358333333,SMBus,Read address 0x0B ACK Protocol=Read word,,,,,,,,,,
13.1766620833333,SMBus,Word 0xFFFF ACK,,,,,,,,,,
13.1770188333333,SMBus,PEC 0xA2 OK,,,,,,,,,,
13.1782610833333,SMBus,Write address 0x0B ACK Protocol=Read word,,,,,,,,,,
13.1784113333333,SMBus,Command CycleCount 0x17,,,,,,,,,,
13.1786189166667,SMBus,Read address 0x0B ACK Protocol=Read word,,,,,,,,,,
13.1788233333333,SMBus,Word 0x6A02 ACK,,,,,,,,,,
13.1791019166667,SMBus,PEC 0xB1 OK,,,,,,,,,,
13.1803569166667,SMBus,Write address 0x0B ACK Protocol=Read word,,,,,,,,,,
13.1805071666667,SMBus,Command MaxError 0x0C,,,,,,,,,,
13.18071475,SMBus,Read address 0x0B ACK Protocol=Read word,,,,,,,,,,
13.1809026666667,SMBus,Word 0x0200 ACK,,,,,,,,,,
13.1812359166667,SMBus,PEC 0x0F OK,,,,,,,,,,
13.1826956666667,SMBus,Write address 0x0B ACK Protocol=Read word,,,,,,,,,,
13.1828458333333,SMBus,Command RelativeStateOfCharge 0x0D,,,,,,,,,,
13.1830534166667,SMBus,Read address 0x0B ACK Protocol=Read word,,,,,,,,,,
13.1832444166667,SMBus,Word 0x0000 ACK,,,,,,,,,,
13.18357575,SMBus,PEC 0x33 OK,,,,,,,,,,
13.1847915,SMBus,Write address 0x0B ACK Protocol=Block write,,,,,,,,,,
13.18494175,SMBus,Command ManufacturerData 0x23,,,,,,,,,,
13.1851493333333,SMBus,Read address 0x0B ACK Protocol=Block write,,,,,,,,,,
13.18536,SMBus,Byte count 0x0C,,,,,,,,,,
13.1855356666667,SMBus,Byte 0x42 ACK,,,,,,,,,,
13.1857141666667,SMBus,Byte 0x0A ACK,,,,,,,,,,
13.1858936666667,SMBus,Byte 0x05 ACK,,,,,,,,,,
13.1860721666667,SMBus,Byte 0x12 ACK,,,,,,,,,,
13.1861945833333,SMBus,Byte 0x86 ACK,,,,,,,,,,
13.1864300833333,SMBus,Byte 0x0F ACK,,,,,,,,,,
13.1865524166667,SMBus,Byte 0x86 ACK,,,,,,,,,,
13.1867880833333,SMBus,Byte 0x0F ACK,,,,,,,,,,
13.18691025,SMBus,Byte 0x86 ACK,,,,,,,,,,
13.1871460833333,SMBus,Byte 0x0F ACK,,,,,,,,,,
13.1872680833333,SMBus,Byte 0x86 ACK,,,,,,,,,,
13.1875040833333,SMBus,Byte 0x0F ACK,,,,,,,,,,
13.18767975,SMBus,PEC 0x1B OK,,,,,,,,,,
13.1889320833333,SMBus,Write address 0x0B ACK Protocol=Block write,,,,,,,,,,
13.1890823333333,SMBus,Command <error> 0x30,,,,,,,,,,
13.1892899166667,SMBus,Read address 0x0B ACK Protocol=Block write,,,,,,,,,,
13.1895013333333,SMBus,Byte count 0x0A,,,,,,,,,,
13.189676,SMBus,Byte 0x09 ACK,,,,,,,,,,
13.1897984166667,SMBus,Byte 0xEB ACK,,,,,,,,,,
13.190034,SMBus,Byte 0x1A ACK,,,,,,,,,,
13.19015625,SMBus,Byte 0xC1 ACK,,,,,,,,,,
13.1903919166667,SMBus,Byte 0x09 ACK,,,,,,,,,,
13.1905704166667,SMBus,Byte 0x15 ACK,,,,,,,,,,
13.1907499166667,SMBus,Byte 0x00 ACK,,,,,,,,,,
13.1909284166667,SMBus,Byte 0x00 ACK,,,,,,,,,,
13.1911078333333,SMBus,Byte 0x00 ACK,,,,,,,,,,
13.1912863333333,SMBus,Byte 0x00 ACK,,,,,,,,,,
13.1914629166667,SMBus,PEC 0x5A OK,,,,,,,,,,
15.1953975833333,SMBus,Write address 0x0B ACK Protocol=Read word,,,,,,,,,,
15.1955478333333,SMBus,Command ManufacturerAccess 0x00,,,,,,,,,,
15.1957554166667,SMBus,Read address 0x0B ACK Protocol=Read word,,,,,,,,,,
15.1959261666667,SMBus,Word 0x1800 ACK,,,,,,,,,,
15.1962640833333,SMBus,PEC 0x32 OK,,,,,,,,,,
15.1974678333333,SMBus,Write address 0x0B ACK Protocol=Read word,,,,,,,,,,
15.1976180833333,SMBus,Command BatteryStatus 0x16,,,,,,,,,,
15.1978256666667,SMBus,Read address 0x0B ACK Protocol=Read word,,,,,,,,,,
15.1979523333333,SMBus,BatteryStatus 0x900A OVER CHARGED ALARM=1, TERMINATE CHARGE ALARM=0, OVER TEMP ALARM=1, TERMINATE DISCHARGE ALARM=0, REMAINING CAPACITY ALARM=0, REMAINING TIME ALARM=0, INITIALIZED=0, DISCHARGING=0, FULLY CHARGED=0, FULLY DISCHARGED=0, ErrorCode=ReservedCommand
15.19835975,SMBus,PEC 0x09 OK,,,,,,,,,,
15.1998320833333,SMBus,Write address 0x0B ACK Protocol=Read word,,,,,,,,,,
15.1999823333333,SMBus,Command ChargingCurrent 0x14,,,,,,,,,,
15.2001899166667,SMBus,Read address 0x0B ACK Protocol=Read word,,,,,,,,,,
15.2003163333333,SMBus,Word 0xE40C ACK,,,,,,,,,,
15.2006729166667,SMBus,PEC 0xC1 OK,,,,,,,,,,
15.2019151666667,SMBus,Write address 0x0B ACK Protocol=Read word,,,,,,,,,,
15.2020654166667,SMBus,Command ChargingVoltage 0x15,,,,,,,,,,
15.202273,SMBus,Read address 0x0B ACK Protocol=Read word,,,,,,,,,,
15.2024746666667,SMBus,Word 0x3831 ACK,,,,,,,,,,
15.202807,SMBus,PEC 0x22 OK,,,,,,,,,,
15.204011,SMBus,Write address 0x0B ACK Protocol=Read word,,,,,,,,,,
15.20416125,SMBus,Command Temperature 0x08,,,,,,,,,,
15.2043688333333,SMBus,Read address 0x0B ACK Protocol=Read word,,,,,,,,,,
15.2044949166667,SMBus,Word 0x9C0B ACK,,,,,,,,,,
15.2048899166667,SMBus,PEC 0x51 OK,,,,,,,,,,
15.2061005,SMBus,Write address 0x0B ACK Protocol=Read word,,,,,,,,,,
15.2062571666667,SMBus,Command <error> 0x3B,,,,,,,,,,
15.20646475,SMBus,Read address 0x0B ACK Protocol=Read word,,,,,,,,,,
15.2065910833333,SMBus,Word 0x9C0B ACK,,,,,,,,,,
15.20697325,SMBus,PEC 0xC2 OK,,,,,,,,,,
15.2082283333333,SMBus,Write address 0x0B ACK Protocol=Read word,,,,,,,,,,
15.2083785833333,SMBus,Command Voltage 0x09,,,,,,,,,,
15.2085861666667,SMBus,Read address 0x0B ACK Protocol=Read word,,,,,,,,,,
15.2087120833333,SMBus,Word 0xAA1D ACK,,,,,,,,,,
15.2090563333333,SMBus,PEC 0xA2 OK,,,,,,,,,,
15.210452,SMBus,Write address 0x0B ACK Protocol=Read word,,,,,,,,,,
15.2106021666667,SMBus,Command RemainingCapacity 0x0F,,,,,,,,,,
15.2108098333333,SMBus,Read address 0x0B ACK Protocol=Read word,,,,,,,,,,
15.2110028333333,SMBus,Word 0x0000 ACK,,,,,,,,,,
15.2113311666667,SMBus,PEC 0x1F OK,,,,,,,,,,
15.2128545833333,SMBus,Write address 0x0B ACK Protocol=Read word,,,,,,,,,,
15.21300475,SMBus,Command FullChargeCapacity 0x10,,,,,,,,,,
15.2132123333333,SMBus,Read address 0x0B ACK Protocol=Read word,,,,,,,,,,
15.21333875,SMBus,Word 0xC60D ACK,,,,,,,,,,
15.2137461666667,SMBus,PEC 0x1A OK,,,,,,,,,,
15.2149375833333,SMBus,Write address 0x0B ACK Protocol=Read word,,,,,,,,,,
15.2151006666667,SMBus,Command Current 0x0A,,,,,,,,,,
15.21530825,SMBus,Read address 0x0B ACK Protocol=Read word,,,,,,,,,,
15.2154949166667,SMBus,Word 0x0000 ACK,,,,,,,,,,
15.2158290833333,SMBus,PEC 0x51 OK,,,,,,,,,,
15.2170335,SMBus,Write address 0x0B ACK Protocol=Read word,,,,,,,,,,
15.21718375,SMBus,Command RunTimeToEmpty 0x11,,,,,,,,,,
15.2173913333333,SMBus,Read address 0x0B ACK Protocol=Read word,,,,,,,,,,
15.217518,SMBus,Word 0xFFFF ACK,,,,,,,,,,
15.21787425,SMBus,PEC 0x98 OK,,,,,,,,,,
15.2194105,SMBus,Write address 0x0B ACK Protocol=Read word,,,,,,,,,,
15.21956075,SMBus,Command AverageCurrent 0x0B,,,,,,,,,,
15.2197683333333,SMBus,Read address 0x0B ACK Protocol=Read word,,,,,,,,,,
15.2199564166667,SMBus,Word 0x0000 ACK,,,,,,,,,,
15.2202895,SMBus,PEC 0x47 OK,,,,,,,,,,
15.2214935833333,SMBus,Write address 0x0B ACK Protocol=Read word,,,,,,,,,,
15.2216438333333,SMBus,Command AverageTimeToFull 0x13,,,,,,,,,,
15.2218514166667,SMBus,Read address 0x0B ACK Protocol=Read word,,,,,,,,,,
15.2219773333333,SMBus,Word 0xFFFF ACK,,,,,,,,,,
15.2223343333333,SMBus,PEC 0xB4 OK,,,,,,,,,,
15.2235894166667,SMBus,Write address 0x0B ACK Protocol=Read word,,,,,,,,,,
15.2237396666667,SMBus,Command AverageTimeToEmpty 0x12,,,,,,,,,,
15.22394725,SMBus,Read address 0x0B ACK Protocol=Read word,,,,,,,,,,
15.2240734166667,SMBus,Word 0xFFFF ACK,,,,,,,,,,
15.22443025,SMBus,PEC 0xA2 OK,,,,,,,,,,
15.2256725,SMBus,Write address 0x0B ACK Protocol=Read word,,,,,,,,,,
15.22582275,SMBus,Command CycleCount 0x17,,,,,,,,,,
15.2260303333333,SMBus,Read address 0x0B ACK Protocol=Read word,,,,,,,,,,
15.2262350833333,SMBus,Word 0x6A02 ACK,,,,,,,,,,
15.2265133333333,SMBus,PEC 0xB1 OK,,,,,,,,,,
15.2277683333333,SMBus,Write address 0x0B ACK Protocol=Read word,,,,,,,,,,
15.2279185833333,SMBus,Command MaxError 0x0C,,,,,,,,,,
15.2281261666667,SMBus,Read address 0x0B ACK Protocol=Read word,,,,,,,,,,
15.2283141666667,SMBus,Word 0x0200 ACK,,,,,,,,,,
15.2286474166667,SMBus,PEC 0x0F OK,,,,,,,,,,
15.2301070833333,SMBus,Write address 0x0B ACK Protocol=Read word,,,,,,,,,,
15.23025725,SMBus,Command RelativeStateOfCharge 0x0D,,,,,,,,,,
15.2304649166667,SMBus,Read address 0x0B ACK Protocol=Read word,,,,,,,,,,
15.2306549166667,SMBus,Word 0x0000 ACK,,,,,,,,,,
15.2309861666667,SMBus,PEC 0x33 OK,,,,,,,,,,
15.2322029166667,SMBus,Write address 0x0B ACK Protocol=Block write,,,,,,,,,,
15.2323531666667,SMBus,Command ManufacturerData 0x23,,,,,,,,,,
15.23256075,SMBus,Read address 0x0B ACK Protocol=Block write,,,,,,,,,,
15.23277125,SMBus,Byte count 0x0C,,,,,,,,,,
15.2329469166667,SMBus,Byte 0x42 ACK,,,,,,,,,,
15.2331264166667,SMBus,Byte 0x0A ACK,,,,,,,,,,
15.2333049166667,SMBus,Byte 0x05 ACK,,,,,,,,,,
15.2334835,SMBus,Byte 0x12 ACK,,,,,,,,,,
15.233606,SMBus,Byte 0x86 ACK,,,,,,,,,,
15.2338415,SMBus,Byte 0x0F ACK,,,,,,,,,,
15.2339638333333,SMBus,Byte 0x86 ACK,,,,,,,,,,
15.2341995833333,SMBus,Byte 0x0F ACK,,,,,,,,,,
15.2343216666667,SMBus,Byte 0x86 ACK,,,,,,,,,,
15.2345576666667,SMBus,Byte 0x0F ACK,,,,,,,,,,
15.2346795,SMBus,Byte 0x86 ACK,,,,,,,,,,
15.23491475,SMBus,Byte 0x0F ACK,,,,,,,,,,
15.2350913333333,SMBus,PEC 0x1B OK,,,,,,,,,,
15.2363435,SMBus,Write address 0x0B ACK Protocol=Block write,,,,,,,,,,
15.23649375,SMBus,Command <error> 0x30,,,,,,,,,,
15.2367013333333,SMBus,Read address 0x0B ACK Protocol=Block write,,,,,,,,,,
15.2369128333333,SMBus,Byte count 0x0A,,,,,,,,,,
15.2370875,SMBus,Byte 0x09 ACK,,,,,,,,,,
15.2372098333333,SMBus,Byte 0xEB ACK,,,,,,,,,,
15.2374455,SMBus,Byte 0x1A ACK,,,,,,,,,,
15.2375676666667,SMBus,Byte 0xC1 ACK,,,,,,,,,,
15.2378034166667,SMBus,Byte 0x09 ACK,,,,,,,,,,
15.237982,SMBus,Byte 0x15 ACK,,,,,,,,,,
15.2381614166667,SMBus,Byte 0x00 ACK,,,,,,,,,,
15.23834,SMBus,Byte 0x00 ACK,,,,,,,,,,
15.2385194166667,SMBus,Byte 0x00 ACK,,,,,,,,,,
15.2386979166667,SMBus,Byte 0x00 ACK,,,,,,,,,,
15.2388735833333,SMBus,PEC 0x5A OK,,,,,,,,,,
17.2429641666667,SMBus,Write address 0x0B ACK Protocol=Read word,,,,,,,,,,
17.2431144166667,SMBus,Command ManufacturerAccess 0x00,,,,,,,,,,
17.243322,SMBus,Read address 0x0B ACK Protocol=Read word,,,,,,,,,,
17.2434926666667,SMBus,Word 0x1800 ACK,,,,,,,,,,
17.2438305833333,SMBus,PEC 0x32 OK,,,,,,,,,,
17.2452261666667,SMBus,Write address 0x0B ACK Protocol=Read word,,,,,,,,,,
17.2453764166667,SMBus,Command BatteryStatus 0x16,,,,,,,,,,
17.245584,SMBus,Read address 0x0B ACK Protocol=Read word,,,,,,,,,,
17.2457104166667,SMBus,BatteryStatus 0x900A OVER CHARGED ALARM=1, TERMINATE CHARGE ALARM=0, OVER TEMP ALARM=1, TERMINATE DISCHARGE ALARM=0, REMAINING CAPACITY ALARM=0, REMAINING TIME ALARM=0, INITIALIZED=0, DISCHARGING=0, FULLY CHARGED=0, FULLY DISCHARGED=0, ErrorCode=ReservedCommand
17.24611775,SMBus,PEC 0x09 OK,,,,,,,,,,
17.2473603333333,SMBus,Write address 0x0B ACK Protocol=Read word,,,,,,,,,,
17.2475105833333,SMBus,Command ChargingCurrent 0x14,,,,,,,,,,
17.247731,SMBus,Read address 0x0B ACK Protocol=Read word,,,,,,,,,,
17.247857,SMBus,Word 0xE40C ACK,,,,,,,,,,
17.2482139166667,SMBus,PEC 0xC1 OK,,,,,,,,,,
17.2495200833333,SMBus,Write address 0x0B ACK Protocol=Read word,,,,,,,,,,
17.2496831666667,SMBus,Command ChargingVoltage 0x15,,,,,,,,,,
17.24989075,SMBus,Read address 0x0B ACK Protocol=Read word,,,,,,,,,,
17.2500924166667,SMBus,Word 0x3831 ACK,,,,,,,,,,
17.2504246666667,SMBus,PEC 0x22 OK,,,,,,,,,,
17.2517054166667,SMBus,Write address 0x0B ACK Protocol=Read word,,,,,,,,,,
17.2518556666667,SMBus,Command Temperature 0x08,,,,,,,,,,
17.25206325,SMBus,Read address 0x0B ACK Protocol=Read word,,,,,,,,,,
17.2521890833333,SMBus,Word 0x9C0B ACK,,,,,,,,,,
17.252585,SMBus,PEC 0x51 OK,,,,,,,,,,
17.2538396666667,SMBus,Write address 0x0B ACK Protocol=Read word,,,,,,,,,,
17.2539898333333,SMBus,Command <error> 0x3B,,,,,,,,,,
17.2541975,SMBus,Read address 0x0B ACK Protocol=Read word,,,,,,,,,,
17.2543235833333,SMBus,Word 0x9C0B ACK,,,,,,,,,,
17.254706,SMBus,PEC 0xC2 OK,,,,,,,,,,
17.2560121666667,SMBus,Write address 0x0B ACK Protocol=Read word,,,,,,,,,,
17.2561624166667,SMBus,Command Voltage 0x09,,,,,,,,,,
17.25637,SMBus,Read address 0x0B ACK Protocol=Read word,,,,,,,,,,
17.2564961666667,SMBus,Word 0xA41D ACK,,,,,,,,,,
17.2568911666667,SMBus,PEC 0x74 OK,,,,,,,,,,
17.2583764166667,SMBus,Write address 0x0B ACK Protocol=Read word,,,,,,,,,,
17.2585266666667,SMBus,Command RemainingCapacity 0x0F,,,,,,,,,,
17.258747,SMBus,Read address 0x0B ACK Protocol=Read word,,,,,,,,,,
17.25894,SMBus,Word 0x0000 ACK,,,,,,,,,,
17.2592684166667,SMBus,PEC 0x1F OK,,,,,,,,,,
17.2608428333333,SMBus,Write address 0x0B ACK Protocol=Read word,,,,,,,,,,
17.2609930833333,SMBus,Command FullChargeCapacity 0x10,,,,,,,,,,
17.26120075,SMBus,Read address 0x0B ACK Protocol=Read word,,,,,,,,,,
17.2613265,SMBus,Word 0xC60D ACK,,,,,,,,,,
17.2617348333333,SMBus,PEC 0x1A OK,,,,,,,,,,
17.2629898333333,SMBus,Write address 0x0B ACK Protocol=Read word,,,,,,,,,,
17.2631400833333,SMBus,Command Current 0x0A,,,,,,,,,,
17.2633476666667,SMBus,Read address 0x0B ACK Protocol=Read word,,,,,,,,,,
17.2635345833333,SMBus,Word 0x0000 ACK,,,,,,,,,,
17.26386875,SMBus,PEC 0x51 OK,,,,,,,,,,
17.2651368333333,SMBus,Write address 0x0B ACK Protocol=Read word,,,,,,,,,,
17.2652870833333,SMBus,Command RunTimeToEmpty 0x11,,,,,,,,,,
17.2654946666667,SMBus,Read address 0x0B ACK Protocol=Read word,,,,,,,,,,
17.26562075,SMBus,Word 0xFFFF ACK,,,,,,,,,,
17.2659775833333,SMBus,PEC 0x98 OK,,,,,,,,,,
17.2672965833333,SMBus,Write address 0x0B ACK Protocol=Read word,,,,,,,,,,
17.2674468333333,SMBus,Command AverageCurrent 0x0B,,,,,,,,,,
17.2676544166667,SMBus,Read address 0x0B ACK Protocol=Read word,,,,,,,,,,
17.267842,SMBus,Word 0x0000 ACK,,,,,,,,,,
17.2681885833333,SMBus,PEC 0x47 OK,,,,,,,,,,
17.2694563333333,SMBus,Write address 0x0B ACK Protocol=Read word,,,,,,,,,,
17.2696065833333,SMBus,Command AverageTimeToFull 0x13,,,,,,,,,,
17.2698141666667,SMBus,Read address 0x0B ACK Protocol=Read word,,,,,,,,,,
17.2699405,SMBus,Word 0xFFFF ACK,,,,,,,,,,
17.2702971666667,SMBus,PEC 0xB4 OK,,,,,,,,,,
17.2716033333333,SMBus,Write address 0x0B ACK Protocol=Read word,,,,,,,,,,
17.2717535833333,SMBus,Command AverageTimeToEmpty 0x12,,,,,,,,,,
17.2719611666667,SMBus,Read address 0x0B ACK Protocol=Read word,,,,,,,,,,
17.2720873333333,SMBus,Word 0xFFFF ACK,,,,,,,,,,
17.2724569166667,SMBus,PEC 0xA2 OK,,,,,,,,,,
17.2737758333333,SMBus,Write address 0x0B ACK Protocol=Read word,,,,,,,,,,
17.2739260833333,SMBus,Command CycleCount 0x17,,,,,,,,,,
17.2741336666667,SMBus,Read address 0x0B ACK Protocol=Read word,,,,,,,,,,
17.2743389166667,SMBus,Word 0x6A02 ACK,,,,,,,,,,
17.2746166666667,SMBus,PEC 0xB1 OK,,,,,,,,,,
17.2759228333333,SMBus,Write address 0x0B ACK Protocol=Read word,,,,,,,,,,
17.2760730833333,SMBus,Command MaxError 0x0C,,,,,,,,,,
17.2762806666667,SMBus,Read address 0x0B ACK Protocol=Read word,,,,,,,,,,
17.2764681666667,SMBus,Word 0x0200 ACK,,,,,,,,,,
17.27680225,SMBus,PEC 0x0F OK,,,,,,,,,,
17.2783126666667,SMBus,Write address 0x0B ACK Protocol=Read word,,,,,,,,,,
17.2784628333333,SMBus,Command RelativeStateOfCharge 0x0D,,,,,,,,,,
17.2786705,SMBus,Read address 0x0B ACK Protocol=Read word,,,,,,,,,,
17.2788605,SMBus,Word 0x0000 ACK,,,,,,,,,,
17.27919175,SMBus,PEC 0x33 OK,,,,,,,,,,
17.2804595833333,SMBus,Write address 0x0B ACK Protocol=Block write,,,,,,,,,,
17.2806098333333,SMBus,Command ManufacturerData 0x23,,,,,,,,,,
17.2808174166667,SMBus,Read address 0x0B ACK Protocol=Block write,,,,,,,,,,
17.2810283333333,SMBus,Byte count 0x0C,,,,,,,,,,
17.281204,SMBus,Byte 0x42 ACK,,,,,,,,,,
17.2813825,SMBus,Byte 0x0A ACK,,,,,,,,,,
17.281562,SMBus,Byte 0x05 ACK,,,,,,,,,,
17.2817405,SMBus,Byte 0x12 ACK,,,,,,,,,,
17.2818626666667,SMBus,Byte 0x86 ACK,,,,,,,,,,
17.2820985,SMBus,Byte 0x0F ACK,,,,,,,,,,
17.2822205,SMBus,Byte 0x86 ACK,,,,,,,,,,
17.2824565833333,SMBus,Byte 0x0F ACK,,,,,,,,,,
17.2825783333333,SMBus,Byte 0x86 ACK,,,,,,,,,,
17.2828136666667,SMBus,Byte 0x0F ACK,,,,,,,,,,
17.2829361666667,SMBus,Byte 0x86 ACK,,,,,,,,,,
17.2831716666667,SMBus,Byte 0x0F ACK,,,,,,,,,,
17.2833483333333,SMBus,PEC 0x1B OK,,,,,,,,,,
17.2846640833333,SMBus,Write address 0x0B ACK Protocol=Block write,,,,,,,,,,
17.2848143333333,SMBus,Command <error> 0x30,,,,,,,,,,
17.2850219166667,SMBus,Read address 0x0B ACK Protocol=Block write,,,,,,,,,,
17.2852330833333,SMBus,Byte count 0x0A,,,,,,,,,,
17.28540875,SMBus,Byte 0x09 ACK,,,,,,,,,,
17.2855305,SMBus,Byte 0xEB ACK,,,,,,,,,,
17.2857658333333,SMBus,Byte 0x1A ACK,,,,,,,,,,
17.28588825,SMBus,Byte 0xC1 ACK,,,,,,,,,,
17.286124,SMBus,Byte 0x09 ACK,,,,,,,,,,
17.2863025,SMBus,Byte 0x15 ACK,,,,,,,,,,
17.2864819166667,SMBus,Byte 0x00 ACK,,,,,,,,,,
17.2866605,SMBus,Byte 0x00 ACK,,,,,,,,,,
17.28684,SMBus,Byte 0x00 ACK,,,,,,,,,,
17.2870185,SMBus,Byte 0x00 ACK,,,,,,,,,,
17.28719425,SMBus,PEC 0x5A OK,,,,,,,,,,
19.2905178333333,SMBus,Write address 0x0B ACK Protocol=Read word,,,,,,,,,,
19.2906680833333,SMBus,Command ManufacturerAccess 0x00,,,,,,,,,,
19.2908756666667,SMBus,Read address 0x0B ACK Protocol=Read word,,,,,,,,,,
19.2910458333333,SMBus,Word 0x1800 ACK,,,,,,,,,,
19.2913838333333,SMBus,PEC 0x32 OK,,,,,,,,,,
19.2926265,SMBus,Write address 0x0B ACK Protocol=Read word,,,,,,,,,,
19.29277675,SMBus,Command BatteryStatus 0x16,,,,,,,,,,
19.2929843333333,SMBus,Read address 0x0B ACK Protocol=Read word,,,,,,,,,,
19.2931101666667,SMBus,BatteryStatus 0x900A OVER CHARGED ALARM=1, TERMINATE CHARGE ALARM=0, OVER TEMP ALARM=1, TERMINATE DISCHARGE ALARM=0, REMAINING CAPACITY ALARM=0, REMAINING TIME ALARM=0, INITIALIZED=0, DISCHARGING=0, FULLY CHARGED=0, FULLY DISCHARGED=0, ErrorCode=ReservedCommand
19.2935184166667,SMBus,PEC 0x09 OK,,,,,,,,,,
19.2947735,SMBus,Write address 0x0B ACK Protocol=Read word,,,,,,,,,,
19.2949236666667,SMBus,Command ChargingCurrent 0x14,,,,,,,,,,
19.2951313333333,SMBus,Read address 0x0B ACK Protocol=Read word,,,,,,,,,,
19.2952571666667,SMBus,Word 0xE40C ACK,,,,,,,,,,
19.29561425,SMBus,PEC 0xC1 OK,,,,,,,,,,
19.2969204166667,SMBus,Write address 0x0B ACK Protocol=Read word,,,,,,,,,,
19.2970706666667,SMBus,Command ChargingVoltage 0x15,,,,,,,,,,
19.2972910833333,SMBus,Read address 0x0B ACK Protocol=Read word,,,,,,,,,,
19.2974930833333,SMBus,Word 0x3831 ACK,,,,,,,,,,
19.2978253333333,SMBus,PEC 0x22 OK,,,,,,,,,,
19.299093,SMBus,Write address 0x0B ACK Protocol=Read word,,,,,,,,,,
19.29924325,SMBus,Command Temperature 0x08,,,,,,,,,,
19.2994508333333,SMBus,Read address 0x0B ACK Protocol=Read word,,,,,,,,,,
19.2995765833333,SMBus,Word 0x9C0B ACK,,,,,,,,,,
19.2999715833333,SMBus,PEC 0x51 OK,,,,,,,,,,
19.30124,SMBus,Write address 0x0B ACK Protocol=Read word,,,,,,,,,,
19.3013901666667,SMBus,Command <error> 0x3B,,,,,,,,,,
19.3015978333333,SMBus,Read address 0x0B ACK Protocol=Read word,,,,,,,,,,
19.3017238333333,SMBus,Word 0x9C0B ACK,,,,,,,,,,
19.3021063333333,SMBus,PEC 0xC2 OK,,,,,,,,,,
