Time [s], Analyzer Name, Decoded Protocol Result
0.154334416666667,SMBus,Write address 0x0B ACK Protocol=Read byte
0.154484583333333,SMBus,Command SpecificationInfo 0x1A
0.154858416666667,SMBus,Read address 0x0B ACK Protocol=Read byte
0.155126750000000,SMBus,Byte 0x31 ACK
0.155320333333333,SMBus,Bad PEC 0x00 should be 0x9D
0.156379166666667,SMBus,Write address 0x0B ACK Protocol=Read word
0.156529333333333,SMBus,Command BatteryMode 0x03
0.156890333333333,SMBus,Read address 0x0B ACK Protocol=Read word
0.157165083333333,SMBus,BatteryMode 0x00E0 INTERNAL_CHARGE_CONTROLLER=0, PRIMARY_BATTERY_SUPPORT=0, CONDITION_FLAG=1, CHARGE_CONTROLLER_ENABLED=0, PRIMARY_BATTERY=0, ALARM_MODE=0, CHARGER_MODE=0, CAPACITY_MODE=0
0.157549166666667,SMBus,PEC 0x59 OK
0.158858416666667,SMBus,Write address 0x0B ACK Protocol=Write word
0.159008500000000,SMBus,Command BatteryMode 0x03
0.159315250000000,SMBus,BatteryMode 0x04E0 INTERNAL_CHARGE_CONTROLLER=0, PRIMARY_BATTERY_SUPPORT=0, CONDITION_FLAG=1, CHARGE_CONTROLLER_ENABLED=0, PRIMARY_BATTERY=0, ALARM_MODE=0, CHARGER_MODE=0, CAPACITY_MODE=0
0.159698666666667,SMBus,PEC 0x54 OK
0.160711416666667,SMBus,Write address 0x0B ACK Protocol=Read word
0.160861583333333,SMBus,Command BatteryMode 0x03
0.161222583333333,SMBus,Read address 0x0B ACK Protocol=Read word
0.161490916666667,SMBus,BatteryMode 0x04E0 INTERNAL_CHARGE_CONTROLLER=0, PRIMARY_BATTERY_SUPPORT=0, CONDITION_FLAG=1, CHARGE_CONTROLLER_ENABLED=0, PRIMARY_BATTERY=0, ALARM_MODE=0, CHARGER_MODE=0, CAPACITY_MODE=0
0.161868500000000,SMBus,PEC 0x0D OK
0.162922250000000,SMBus,Write address 0x0B ACK Protocol=Read word
0.163072416666667,SMBus,Command DesignCapacity 0x18
0.163446166666667,SMBus,Read address 0x0B ACK Protocol=Read word
0.163714416666667,SMBus,Word 0xF015 ACK
0.164078500000000,SMBus,PEC 0x65 OK
0.165145833333333,SMBus,Write address 0x0B ACK Protocol=Read word
0.165296000000000,SMBus,Command DesignVoltage 0x19
0.165669833333333,SMBus,Read address 0x0B ACK Protocol=Read word
0.165938166666667,SMBus,Word 0x302A ACK
0.166302166666667,SMBus,PEC 0x23 OK
0.167369500000000,SMBus,Write address 0x0B ACK Protocol=Read word
0.167519666666667,SMBus,Command ManufactureDate 0x1B
0.167893500000000,SMBus,Read address 0x0B ACK Protocol=Read word
0.168161416666667,SMBus,ManufactureDate 0x9C3D 1/29/1994
0.168504250000000,SMBus,PEC 0x8E OK
0.169593166666667,SMBus,Write address 0x0B ACK Protocol=Read word
0.169743250000000,SMBus,Command SerialNumber 0x1C
0.170117083333333,SMBus,Read address 0x0B ACK Protocol=Read word
0.170391833333333,SMBus,Word 0x6728 ACK
0.170762833333333,SMBus,PEC 0x04 OK
0.171816750000000,SMBus,Write address 0x0B ACK Protocol=Block write
0.171966916666667,SMBus,Command ManufacturerName 0x20
0.172366250000000,SMBus,Read address 0x0B ACK Protocol=Block write
0.172724083333333,SMBus,Byte count 0x06
0.172917083333333,SMBus,Byte 0x4C ACK
0.173095833333333,SMBus,Byte 0x47 ACK
0.173275166666667,SMBus,Byte 0x43 ACK
0.173453916666667,SMBus,Byte 0x00 ACK
0.173633000000000,SMBus,Byte 0x31 ACK
0.173811833333333,SMBus,Byte 0x31 ACK
0.173961083333333,SMBus,PEC 0xCC OK
0.175050000000000,SMBus,Write address 0x0B ACK Protocol=Block write
0.175200166666667,SMBus,Command ManufacturerName 0x20
0.175650583333333,SMBus,Read address 0x0B ACK Protocol=Block write
0.176097916666667,SMBus,Byte count 0x0B
0.176291750000000,SMBus,Byte 0x4C ACK
0.176483416666667,SMBus,Byte 0x4F ACK
0.176611666666667,SMBus,Byte 0x2B ACK
0.176790500000000,SMBus,Byte 0x16 NACK
0.176951083333333,SMBus,Byte 0x1A ACK
0.177160833333333,SMBus,Byte 0x19 ACK
0.177340166666667,SMBus,Byte 0x2A ACK
0.177519250000000,SMBus,Byte 0x1A ACK
0.177710666666667,SMBus,Byte 0x1C NACK
0.177871250000000,SMBus,Byte 0x18 NACK
0.178050166666667,SMBus,Byte 0x18 NACK
0.178229083333333,SMBus,Bad PEC 0x43 should be 0x37
0.179842250000000,SMBus,Write address 0x0B ACK Protocol=Block write
0.179992416666667,SMBus,Command DeviceChemistry 0x22
0.180404583333333,SMBus,Read address 0x0B ACK Protocol=Block write
0.180724083333333,SMBus,Byte count 0x04
0.180916583333333,SMBus,Byte 0x4C ACK
0.181095416666667,SMBus,Byte 0x49 ACK
0.181274416666667,SMBus,Byte 0x4F ACK
0.181453500000000,SMBus,Byte 0x4E ACK
0.181624916666667,SMBus,PEC 0x31 OK
0.182819916666667,SMBus,Write address 0x0B ACK Protocol=Process call
0.182970083333333,SMBus,Command OptionalMfgFunction4 0x3C
0.183340666666667,SMBus,Byte count 0x04
0.183529166666667,SMBus,Byte 0x00 ACK
0.183724000000000,SMBus,Byte 0x2D ACK
0.183915750000000,SMBus,Byte 0x00 ACK
0.184107416666667,SMBus,Byte 0x00 ACK
0.184299083333333,SMBus,PEC 0x0C OK
0.289171416666667,SMBus,Write address 0x0B ACK Protocol=Block write
0.289321500000000,SMBus,Command OptionalMfgFunction4 0x3C
0.289772000000000,SMBus,Read address 0x0B ACK Protocol=Block write
0.290104250000000,SMBus,Byte count 0x10
0.290296833333333,SMBus,Byte 0x4C ACK
0.290477083333333,SMBus,Byte 0x65 ACK
0.290668500000000,SMBus,Byte 0x6E ACK
0.290859666666667,SMBus,Byte 0x6F ACK
0.291038916666667,SMBus,Byte 0x76 ACK
0.291217250000000,SMBus,Byte 0x6F ACK
0.291396583333333,SMBus,Byte 0x20 ACK
0.291575083333333,SMBus,Byte 0x4A ACK
0.291753916666667,SMBus,Byte 0x61 ACK
0.291933000000000,SMBus,Byte 0x70 ACK
0.292111750000000,SMBus,Byte 0x61 ACK
0.292291000000000,SMBus,Byte 0x6E ACK
0.292440333333333,SMBus,Byte 0x92 ACK
0.292648583333333,SMBus,Byte 0x2E ACK
0.292827916666667,SMBus,Byte 0x5D ACK
0.293007166666667,SMBus,Byte 0x43 ACK
0.293190250000000,SMBus,PEC 0x03 OK
0.294359833333333,SMBus,Write address 0x0B ACK Protocol=Read word
0.294510000000000,SMBus,Command <error> 0x35
0.294877416666667,SMBus,Read address 0x0B ACK Protocol=Read word
0.295151833333333,SMBus,Word 0xE000 ACK
0.295530083333333,SMBus,PEC 0x69 OK
0.296570666666667,SMBus,Write address 0x0B ACK Protocol=Block write
0.296720833333333,SMBus,Command <error> 0x37
0.297081916666667,SMBus,Read address 0x0B ACK Protocol=Block write
0.297478083333333,SMBus,Byte count 0x08
0.297671500000000,SMBus,Byte 0x01 ACK
0.297850333333333,SMBus,Byte 0x00 ACK
0.298029333333333,SMBus,Byte 0x07 ACK
0.298219833333333,SMBus,Byte 0x00 ACK
0.298370000000000,SMBus,Byte 0xC2 ACK
0.298578666666667,SMBus,Byte 0x01 ACK
0.298727833333333,SMBus,Byte 0xC2 ACK
0.298935750000000,SMBus,Byte 0x01 ACK
0.299085666666667,SMBus,PEC 0xEC OK
0.300238416666667,SMBus,Write address 0x0B ACK Protocol=Block write
0.300388583333333,SMBus,Command OptionalMfgFunction5 0x2F
0.300762333333333,SMBus,Read address 0x0B ACK Protocol=Block write
0.301081833333333,SMBus,Byte count 0x0B
0.301275500000000,SMBus,Byte 0x31 ACK
0.301466750000000,SMBus,Byte 0x5A ACK
0.301645083333333,SMBus,Byte 0x4A ACK
0.301824083333333,SMBus,Byte 0x33 ACK
0.302003666666667,SMBus,Byte 0x4A ACK
0.302182916666667,SMBus,Byte 0x31 ACK
0.302373666666667,SMBus,Byte 0x38 NACK
0.302471833333333,SMBus,Byte 0x26 NACK
0.302663500000000,SMBus,Byte 0x18 NACK
0.302855250000000,SMBus,Byte 0x19 ACK
0.303052166666667,SMBus,Byte 0x2C ACK
0.303231500000000,SMBus,Bad PEC 0x12 should be 0x8A
0.304366166666667,SMBus,Write address 0x0B ACK Protocol=Read word
0.304516333333333,SMBus,Command OptionalMfgFunction2 0x3E
0.304877333333333,SMBus,Read address 0x0B ACK Protocol=Read word
0.305145750000000,SMBus,Word 0x2100 ACK
0.305509416666667,SMBus,PEC 0x1B OK
0.306551500000000,SMBus,Write address 0x0B ACK Protocol=Read word
0.306701666666667,SMBus,Command OptionalMfgFunction1 0x3F
0.307075416666667,SMBus,Read address 0x0B ACK Protocol=Read word
0.307343833333333,SMBus,Word 0x283F ACK
0.307707750000000,SMBus,PEC 0x0D OK
0.308871000000000,SMBus,Write address 0x0B ACK Protocol=Read word
0.309027500000000,SMBus,Command OptionalMfgFunction1 0x3F
0.309388500000000,SMBus,Read address 0x0B ACK Protocol=Read word
0.309656916666667,SMBus,Word 0x283F ACK
0.310020750000000,SMBus,PEC 0x0D OK
0.311126500000000,SMBus,Write address 0x0B ACK Protocol=Read word
0.311276666666667,SMBus,Command ManufacturerAccess 0x00
0.311637750000000,SMBus,Read address 0x0B ACK Protocol=Read word
0.311906083333333,SMBus,Word 0x0210 ACK
0.312248500000000,SMBus,PEC 0x97 OK
0.313324583333333,SMBus,Write address 0x0B ACK Protocol=Read word
0.313474750000000,SMBus,Command BatteryStatus 0x16
0.313835750000000,SMBus,Read address 0x0B ACK Protocol=Read word
0.314102833333333,SMBus,BatteryStatus 0x900A OVER CHARGED ALARM=1, TERMINATE CHARGE ALARM=0, OVER TEMP ALARM=1, TERMINATE DISCHARGE ALARM=0, REMAINING CAPACITY ALARM=0, REMAINING TIME ALARM=0, INITIALIZED=0, DISCHARGING=0, FULLY CHARGED=0, FULLY DISCHARGED=0, ErrorCode=ReservedCommand
0.314481083333333,SMBus,PEC 0x09 OK
0.315522666666667,SMBus,Write address 0x0B ACK Protocol=Read word
0.315672833333333,SMBus,Command ChargingCurrent 0x14
0.316046666666667,SMBus,Read address 0x0B ACK Protocol=Read word
0.316315000000000,SMBus,Word 0x0000 ACK
0.316657416666667,SMBus,PEC 0xF2 OK
0.317989083333333,SMBus,Write address 0x0B ACK Protocol=Read word
0.318139250000000,SMBus,Command ChargingVoltage 0x15
0.318513083333333,SMBus,Read address 0x0B ACK Protocol=Read word
0.318781416666667,SMBus,Word 0x0000 ACK
0.319123916666667,SMBus,PEC 0xE4 OK
0.320187166666667,SMBus,Write address 0x0B ACK Protocol=Read word
0.320337333333333,SMBus,Command Temperature 0x08
0.320698333333333,SMBus,Read address 0x0B ACK Protocol=Read word
0.320965916666667,SMBus,Word 0x870B ACK
0.321309166666667,SMBus,PEC 0x91 OK
0.322385250000000,SMBus,Write address 0x0B ACK Protocol=Read word
0.322535416666667,SMBus,Command <error> 0x3B
0.322909250000000,SMBus,Read address 0x0B ACK Protocol=Read word
0.323176750000000,SMBus,Word 0x890B ACK
0.323545583333333,SMBus,PEC 0xD4 OK
0.324608916666667,SMBus,Write address 0x0B ACK Protocol=Read word
0.324759083333333,SMBus,Command Voltage 0x09
0.325132833333333,SMBus,Read address 0x0B ACK Protocol=Read word
0.325400333333333,SMBus,Word 0x8C1D ACK
0.325777666666667,SMBus,PEC 0x72 OK
0.326807000000000,SMBus,Write address 0x0B ACK Protocol=Read word
0.326957166666667,SMBus,Command RemainingCapacity 0x0F
0.327305333333333,SMBus,Read address 0x0B ACK Protocol=Read word
0.327573750000000,SMBus,Word 0x0000 ACK
0.327937500000000,SMBus,PEC 0x1F OK
0.328992250000000,SMBus,Write address 0x0B ACK Protocol=Read word
0.329142416666667,SMBus,Command FullChargeCapacity 0x10
0.329503416666667,SMBus,Read address 0x0B ACK Protocol=Read word
0.329771833333333,SMBus,Word 0x0000 ACK
0.330114250000000,SMBus,PEC 0xAA OK
0.331203083333333,SMBus,Write address 0x0B ACK Protocol=Read word
0.331353250000000,SMBus,Command Current 0x0A
0.331727083333333,SMBus,Read address 0x0B ACK Protocol=Read word
0.331995416666667,SMBus,Word 0x0000 ACK
0.332359666666667,SMBus,PEC 0x51 OK
0.333401166666667,SMBus,Write address 0x0B ACK Protocol=Read word
0.333551333333333,SMBus,Command RunTimeToEmpty 0x11
0.333912333333333,SMBus,Read address 0x0B ACK Protocol=Read word
0.334191166666667,SMBus,Word 0xFF7F NACK
0.334484416666667,SMBus,Bad PEC 0x4C should be 0x11
0.335599250000000,SMBus,Write address 0x0B ACK Protocol=Read word
0.335749416666667,SMBus,Command AverageCurrent 0x0B
0.336123250000000,SMBus,Read address 0x0B ACK Protocol=Read word
0.336398000000000,SMBus,Word 0x0000 ACK
0.336768166666667,SMBus,PEC 0x47 OK
0.339190250000000,SMBus,Write address 0x0B ACK Protocol=Read word
0.339340416666667,SMBus,Command AverageTimeToFull 0x13
0.339714250000000,SMBus,Read address 0x0B ACK Protocol=Read word
0.339981666666667,SMBus,Word 0xFFFF ACK
0.340325083333333,SMBus,PEC 0xB4 OK
0.341503416666667,SMBus,Write address 0x0B ACK Protocol=Read word
0.341653500000000,SMBus,Command AverageTimeToEmpty 0x12
0.342014583333333,SMBus,Read address 0x0B ACK Protocol=Read word
0.342282583333333,SMBus,Word 0xFFFF ACK
0.342638166666667,SMBus,PEC 0xA2 OK
0.343822916666667,SMBus,Write address 0x0B ACK Protocol=Read word
0.343979416666667,SMBus,Command CycleCount 0x17
0.344353166666667,SMBus,Read address 0x0B ACK Protocol=Read word
0.344621583333333,SMBus,Word 0x1405 ACK
0.344964000000000,SMBus,PEC 0xD0 OK
0.346167916666667,SMBus,Write address 0x0B ACK Protocol=Read word
0.346318083333333,SMBus,Command MaxError 0x0C
0.346691833333333,SMBus,Read address 0x0B ACK Protocol=Read word
0.346966666666667,SMBus,Word 0x0000 ACK
0.347337500000000,SMBus,PEC 0x25 OK
0.348519333333333,SMBus,Write address 0x0B ACK Protocol=Read word
0.348669500000000,SMBus,Command RelativeStateOfCharge 0x0D
0.349043250000000,SMBus,Read address 0x0B ACK Protocol=Read word
0.349311666666667,SMBus,Word 0x0000 ACK
0.349675583333333,SMBus,PEC 0x33 OK
0.350819666666667,SMBus,Write address 0x0B ACK Protocol=Block write
0.350969750000000,SMBus,Command ManufacturerData 0x23
0.351343583333333,SMBus,Read address 0x0B ACK Protocol=Block write
0.351663083333333,SMBus,Byte count 0x0E
0.351856250000000,SMBus,Byte 0x01 ACK
0.352034583333333,SMBus,Byte 0x2D ACK
0.352213416666667,SMBus,Byte 0x01 ACK
0.352393166666667,SMBus,Byte 0x2D ACK
0.352572000000000,SMBus,Byte 0x00 ACK
0.352751250000000,SMBus,Byte 0x00 ACK
0.352942666666667,SMBus,Byte 0x02 ACK
0.353134166666667,SMBus,Byte 0x00 ACK
0.353283500000000,SMBus,Byte 0xC4 ACK
0.353491250000000,SMBus,Byte 0x0E ACK
0.353641333333333,SMBus,Byte 0xC7 ACK
0.353849333333333,SMBus,Byte 0x0E ACK
0.354028583333333,SMBus,Byte 0x07 ACK
0.354206916666667,SMBus,Byte 0x30 ACK
0.354356916666667,SMBus,PEC 0xBA OK
0.355586416666667,SMBus,Write address 0x0B ACK Protocol=Block write
0.355736500000000,SMBus,Command <error> 0x30
0.356097583333333,SMBus,Read address 0x0B ACK Protocol=Block write
0.356532083333333,SMBus,Byte count 0x0A
0.356725000000000,SMBus,Byte 0x70 ACK
0.356874500000000,SMBus,Byte 0x9C ACK
0.357083083333333,SMBus,Byte 0x5B ACK
0.357261916666667,SMBus,Byte 0x19 ACK
0.357411250000000,SMBus,Byte 0x84 ACK
0.357619750000000,SMBus,Byte 0x4A ACK
0.357769083333333,SMBus,Byte 0x97 ACK
0.357977833333333,SMBus,Byte 0x00 ACK
0.358156666666667,SMBus,Byte 0x0B ACK
0.358335250000000,SMBus,Byte 0x00 ACK
0.358507333333333,SMBus,PEC 0x08 OK
0.360046416666667,SMBus,Write address 0x0B ACK Protocol=Read word
0.360196583333333,SMBus,Command ManufacturerAccess 0x00
0.360570416666667,SMBus,Read address 0x0B ACK Protocol=Read word
0.360838750000000,SMBus,Word 0x0210 ACK
0.361181166666667,SMBus,PEC 0x97 OK
0.362385083333333,SMBus,Write address 0x0B ACK Protocol=Read word
0.362535250000000,SMBus,Command BatteryStatus 0x16
0.362909000000000,SMBus,Read address 0x0B ACK Protocol=Read word
0.363177250000000,SMBus,BatteryStatus 0x900A OVER CHARGED ALARM=1, TERMINATE CHARGE ALARM=0, OVER TEMP ALARM=1, TERMINATE DISCHARGE ALARM=0, REMAINING CAPACITY ALARM=0, REMAINING TIME ALARM=0, INITIALIZED=0, DISCHARGING=0, FULLY CHARGED=0, FULLY DISCHARGED=0, ErrorCode=ReservedCommand
0.363541833333333,SMBus,PEC 0x09 OK
0.364723750000000,SMBus,Write address 0x0B ACK Protocol=Read word
0.364873916666667,SMBus,Command ChargingCurrent 0x14
0.365247666666667,SMBus,Read address 0x0B ACK Protocol=Read word
0.365516083333333,SMBus,Word 0x0000 ACK
0.365858500000000,SMBus,PEC 0xF2 OK
0.367317916666667,SMBus,Write address 0x0B ACK Protocol=Read word
0.367468083333333,SMBus,Command ChargingVoltage 0x15
0.367829166666667,SMBus,Read address 0x0B ACK Protocol=Read word
0.368110250000000,SMBus,Word 0x0000 ACK
0.368452750000000,SMBus,PEC 0xE4 OK
0.369656583333333,SMBus,Write address 0x0B ACK Protocol=Read word
0.369806750000000,SMBus,Command Temperature 0x08
0.370167750000000,SMBus,Read address 0x0B ACK Protocol=Read word
0.370435333333333,SMBus,Word 0x870B ACK
0.370778583333333,SMBus,PEC 0x91 OK
0.372008000000000,SMBus,Write address 0x0B ACK Protocol=Read word
0.372158166666667,SMBus,Command <error> 0x3B
0.372519166666667,SMBus,Read address 0x0B ACK Protocol=Read word
0.372786750000000,SMBus,Word 0x890B ACK
0.373142833333333,SMBus,PEC 0xD4 OK
0.374346666666667,SMBus,Write address 0x0B ACK Protocol=Read word
0.374496833333333,SMBus,Command Voltage 0x09
0.374870666666667,SMBus,Read address 0x0B ACK Protocol=Read word
0.375138250000000,SMBus,Word 0x8D1D ACK
0.375516750000000,SMBus,PEC 0x67 OK
0.376710916666667,SMBus,Write address 0x0B ACK Protocol=Read word
0.376861000000000,SMBus,Command RemainingCapacity 0x0F
0.377196500000000,SMBus,Read address 0x0B ACK Protocol=Read word
0.377471250000000,SMBus,Word 0x0000 ACK
0.377854583333333,SMBus,PEC 0x1F OK
0.379049500000000,SMBus,Write address 0x0B ACK Protocol=Read word
0.379199666666667,SMBus,Command FullChargeCapacity 0x10
0.379547916666667,SMBus,Read address 0x0B ACK Protocol=Read word
0.379822666666667,SMBus,Word 0x0000 ACK
0.380184333333333,SMBus,PEC 0xAA OK
0.381388166666667,SMBus,Write address 0x0B ACK Protocol=Read word
0.381538333333333,SMBus,Command Current 0x0A
0.381899333333333,SMBus,Read address 0x0B ACK Protocol=Read word
0.382167750000000,SMBus,Word 0x0000 ACK
0.382532916666667,SMBus,PEC 0x51 OK
0.383739583333333,SMBus,Write address 0x0B ACK Protocol=Read word
0.383889750000000,SMBus,Command RunTimeToEmpty 0x11
0.384250750000000,SMBus,Read address 0x0B ACK Protocol=Read word
0.384518916666667,SMBus,Word 0xFFFF ACK
0.384861583333333,SMBus,PEC 0x98 OK
0.386091000000000,SMBus,Write address 0x0B ACK Protocol=Read word
0.386241166666667,SMBus,Command AverageCurrent 0x0B
0.386615000000000,SMBus,Read address 0x0B ACK Protocol=Read word
0.386889750000000,SMBus,Word 0x0000 ACK
0.387260166666667,SMBus,PEC 0x47 OK
0.388442416666667,SMBus,Write address 0x0B ACK Protocol=Read word
0.388592583333333,SMBus,Command AverageTimeToFull 0x13
0.388966416666667,SMBus,Read address 0x0B ACK Protocol=Read word
0.389233666666667,SMBus,Word 0xFFFF ACK
0.389577250000000,SMBus,PEC 0xB4 OK
0.390806666666667,SMBus,Write address 0x0B ACK Protocol=Read word
0.390956833333333,SMBus,Command AverageTimeToEmpty 0x12
0.391317833333333,SMBus,Read address 0x0B ACK Protocol=Read word
0.391585916666667,SMBus,Word 0xFFFF ACK
0.391941416666667,SMBus,PEC 0xA2 OK
0.393170833333333,SMBus,Write address 0x0B ACK Protocol=Read word
0.393321000000000,SMBus,Command CycleCount 0x17
0.393682083333333,SMBus,Read address 0x0B ACK Protocol=Read word
0.393950416666667,SMBus,Word 0x1405 ACK
0.394292833333333,SMBus,PEC 0xD0 OK
0.395522333333333,SMBus,Write address 0x0B ACK Protocol=Read word
0.395672416666667,SMBus,Command MaxError 0x0C
0.396046250000000,SMBus,Read address 0x0B ACK Protocol=Read word
0.396321000000000,SMBus,Word 0x0000 ACK
0.396691916666667,SMBus,PEC 0x25 OK
0.398065416666667,SMBus,Write address 0x0B ACK Protocol=Read word
0.398215583333333,SMBus,Command RelativeStateOfCharge 0x0D
0.398589333333333,SMBus,Read address 0x0B ACK Protocol=Read word
0.398857750000000,SMBus,Word 0x0000 ACK
0.399235250000000,SMBus,PEC 0x33 OK
0.400442416666667,SMBus,Write address 0x0B ACK Protocol=Block write
0.400592583333333,SMBus,Command ManufacturerData 0x23
0.400953583333333,SMBus,Read address 0x0B ACK Protocol=Block write
0.401273083333333,SMBus,Byte count 0x0E
0.401465833333333,SMBus,Byte 0x01 ACK
0.401644916666667,SMBus,Byte 0x36 NACK
0.401742916666667,SMBus,Byte 0x00 NACK
0.401921833333333,SMBus,Byte 0x16 NACK
0.402100750000000,SMBus,Byte 0x00 ACK
0.402297833333333,SMBus,Byte 0x00 ACK
0.402476666666667,SMBus,Byte 0x01 NACK
0.402625500000000,SMBus,Byte 0x00 ACK
0.402806583333333,SMBus,Byte 0x18 NACK
0.402970666666667,SMBus,Byte 0x01 NACK
0.403164416666667,SMBus,Byte 0x98 NACK
0.403356166666667,SMBus,Byte 0xC1 NACK
0.403535083333333,SMBus,Byte 0x80 NACK
0.403714000000000,SMBus,Byte 0xC6 ACK
0.403892916666667,SMBus,Bad PEC 0x17 should be 0x47
0.405234666666667,SMBus,Write address 0x0B ACK Protocol=Block write
0.405384833333333,SMBus,Command <error> 0x30
0.405758666666667,SMBus,Read address 0x0B ACK Protocol=Block write
0.406193166666667,SMBus,Byte count 0x0A
0.406386000000000,SMBus,Byte 0x70 ACK
0.406535583333333,SMBus,Byte 0x9C ACK
0.406743333333333,SMBus,Byte 0x5B ACK
0.406936000000000,SMBus,Byte 0x19 ACK
0.407085166666667,SMBus,Byte 0x84 ACK
0.407302916666667,SMBus,Byte 0x4A ACK
0.407455750000000,SMBus,Byte 0x97 ACK
0.407663583333333,SMBus,Byte 0x00 ACK
0.407843083333333,SMBus,Byte 0x0B ACK
0.408021666666667,SMBus,Byte 0x00 ACK
0.408192833333333,SMBus,PEC 0x08 OK
4.138901583333333,SMBus,Write address 0x0B ACK Protocol=Read word
4.139051750000000,SMBus,Command ManufacturerAccess 0x00
4.139425583333334,SMBus,Read address 0x0B ACK Protocol=Read word
4.139693916666666,SMBus,Word 0x0210 ACK
4.140036333333334,SMBus,PEC 0x97 OK
4.141904750000000,SMBus,Write address 0x0B ACK Protocol=Read word
4.142054916666667,SMBus,Command BatteryStatus 0x16
4.142416000000000,SMBus,Read address 0x0B ACK Protocol=Read word
4.142683666666667,SMBus,BatteryStatus 0x900A OVER CHARGED ALARM=1, TERMINATE CHARGE ALARM=0, OVER TEMP ALARM=1, TERMINATE DISCHARGE ALARM=0, REMAINING CAPACITY ALARM=0, REMAINING TIME ALARM=0, INITIALIZED=0, DISCHARGING=0, FULLY CHARGED=0, FULLY DISCHARGED=0, ErrorCode=ReservedCommand
4.143060916666666,SMBus,PEC 0x09 OK
4.144818500000000,SMBus,Write address 0x0B ACK Protocol=Read word
4.144968666666666,SMBus,Command ChargingCurrent 0x14
4.145342500000000,SMBus,Read address 0x0B ACK Protocol=Read word
4.145610833333333,SMBus,Word 0x0000 ACK
4.145953333333333,SMBus,PEC 0xF2 OK
4.147821750000000,SMBus,Write address 0x0B ACK Protocol=Read word
4.147971916666667,SMBus,Command ChargingVoltage 0x15
4.148345666666667,SMBus,Read address 0x0B ACK Protocol=Read word
4.148614083333333,SMBus,Word 0x0000 ACK
4.148956500000000,SMBus,PEC 0xE4 OK
4.150824916666667,SMBus,Write address 0x0B ACK Protocol=Read word
4.150975083333333,SMBus,Command Temperature 0x08
4.151348916666667,SMBus,Read address 0x0B ACK Protocol=Read word
4.151617000000000,SMBus,Word 0x870B ACK
4.151959750000000,SMBus,PEC 0x91 OK
4.154173166666666,SMBus,Write address 0x0B ACK Protocol=Read word
4.154323333333333,SMBus,Command <error> 0x3B
4.154684333333333,SMBus,Read address 0x0B ACK Protocol=Read word
4.154951583333333,SMBus,Word 0x890B ACK
4.155295166666667,SMBus,PEC 0xD4 OK
4.157176416666666,SMBus,Write address 0x0B ACK Protocol=Read word
4.157326583333333,SMBus,Command Voltage 0x09
4.157700333333334,SMBus,Read address 0x0B ACK Protocol=Read word
4.157967666666667,SMBus,Word 0x8C1D ACK
4.158345666666666,SMBus,PEC 0x72 OK
4.160249916666666,SMBus,Write address 0x0B ACK Protocol=Read word
4.160406416666667,SMBus,Command RemainingCapacity 0x0F
4.160754666666667,SMBus,Read address 0x0B ACK Protocol=Read word
4.161029416666667,SMBus,Word 0x0000 ACK
4.161345333333333,SMBus,Bad PEC 0x0F should be 0x1F
4.163578916666666,SMBus,Write address 0x0B ACK Protocol=Read word
4.163729083333333,SMBus,Command FullChargeCapacity 0x10
4.164090166666667,SMBus,Read address 0x0B ACK Protocol=Read word
4.164358500000000,SMBus,Word 0x0000 ACK
4.164701000000000,SMBus,PEC 0xAA OK
4.166646083333333,SMBus,Write address 0x0B ACK Protocol=Read word
4.166796250000000,SMBus,Command Current 0x0A
4.167157250000000,SMBus,Read address 0x0B ACK Protocol=Read word
4.167432000000000,SMBus,Word 0x0000 ACK
4.167802666666667,SMBus,PEC 0x51 OK
4.169713166666667,SMBus,Write address 0x0B ACK Protocol=Read word
4.169863333333334,SMBus,Command RunTimeToEmpty 0x11
4.170211583333334,SMBus,Read address 0x0B ACK Protocol=Read word
4.170479000000000,SMBus,Word 0xFFFF ACK
4.170835166666667,SMBus,PEC 0x98 OK
4.172997500000000,SMBus,Write address 0x0B ACK Protocol=Read word
4.173147666666667,SMBus,Command AverageCurrent 0x0B
4.173508666666667,SMBus,Read address 0x0B ACK Protocol=Read word
4.173777083333333,SMBus,Word 0x0000 ACK
4.174141500000000,SMBus,PEC 0x47 OK
4.176090166666667,SMBus,Write address 0x0B ACK Protocol=Read word
4.176240333333333,SMBus,Command AverageTimeToFull 0x13
4.176601333333333,SMBus,Read address 0x0B ACK Protocol=Read word
4.176869166666667,SMBus,Word 0xFFFF ACK
4.177212166666667,SMBus,PEC 0xB4 OK
4.179118916666667,SMBus,Write address 0x0B ACK Protocol=Read word
4.179269083333334,SMBus,Command AverageTimeToEmpty 0x12
4.179642916666666,SMBus,Read address 0x0B ACK Protocol=Read word
4.179911333333333,SMBus,Word 0xFFFF ACK
4.180253750000000,SMBus,PEC 0xA2 OK
4.182134916666667,SMBus,Write address 0x0B ACK Protocol=Read word
4.182285083333333,SMBus,Command CycleCount 0x17
4.182658833333333,SMBus,Read address 0x0B ACK Protocol=Read word
4.182933666666667,SMBus,Word 0x1405 ACK
4.183282500000000,SMBus,PEC 0xD0 OK
4.185087000000000,SMBus,Write address 0x0B ACK Protocol=Read word
4.185237166666667,SMBus,Command MaxError 0x0C
4.185610916666667,SMBus,Read address 0x0B ACK Protocol=Read word
4.185879333333333,SMBus,Word 0x0000 ACK
4.186256250000000,SMBus,PEC 0x25 OK
4.188103000000000,SMBus,Write address 0x0B ACK Protocol=Read word
4.188253166666667,SMBus,Command RelativeStateOfCharge 0x0D
4.188614166666667,SMBus,Read address 0x0B ACK Protocol=Read word
4.188882500000000,SMBus,Word 0x0000 ACK
4.189259666666667,SMBus,PEC 0x33 OK
4.191016750000000,SMBus,Write address 0x0B ACK Protocol=Block write
4.191166916666667,SMBus,Command ManufacturerData 0x23
4.191540666666667,SMBus,Read address 0x0B ACK Protocol=Block write
4.191860166666666,SMBus,Byte count 0x0E
4.192063833333333,SMBus,Byte 0x01 ACK
4.192245500000000,SMBus,Byte 0x2D ACK
4.192437166666667,SMBus,Byte 0x01 ACK
4.192628416666667,SMBus,Byte 0x2D ACK
4.192807166666666,SMBus,Byte 0x00 ACK
4.192986250000000,SMBus,Byte 0x00 ACK
4.193164500000000,SMBus,Byte 0x02 ACK
4.193344083333334,SMBus,Byte 0x00 ACK
4.193493333333334,SMBus,Byte 0xC4 ACK
4.193701166666667,SMBus,Byte 0x0E ACK
4.193851166666667,SMBus,Byte 0xC6 ACK
4.194001500000000,SMBus,Byte 0x07 ACK
4.194188416666667,SMBus,Byte 0x03 NACK
4.194349166666667,SMBus,Byte 0x18 ACK
4.194546166666667,SMBus,Bad PEC 0x56 should be 0x1A
4.196460833333333,SMBus,Write address 0x0B ACK Protocol=Block write
4.196611000000000,SMBus,Command <error> 0x30
4.196984750000000,SMBus,Read address 0x0B ACK Protocol=Block write
4.197419333333333,SMBus,Byte count 0x0A
4.197612750000000,SMBus,Byte 0x70 ACK
4.197761750000000,SMBus,Byte 0x9C ACK
4.197969416666667,SMBus,Byte 0x5B ACK
4.198149166666667,SMBus,Byte 0x19 ACK
4.198298500000000,SMBus,Byte 0x84 ACK
4.198519166666666,SMBus,Byte 0x4A ACK
4.198681833333334,SMBus,Byte 0x97 ACK
4.198890583333333,SMBus,Byte 0x00 ACK
4.199068916666667,SMBus,Byte 0x0B ACK
4.199248250000000,SMBus,Byte 0x00 ACK
4.199419166666667,SMBus,PEC 0x08 OK
4.201547083333334,SMBus,Write address 0x0B ACK Protocol=Read word
4.201697250000000,SMBus,Command ManufacturerAccess 0x00
4.202058250000000,SMBus,Read address 0x0B ACK Protocol=Read word
4.202326666666667,SMBus,Word 0x0210 ACK
4.202681916666666,SMBus,PEC 0x97 OK
4.204486416666667,SMBus,Write address 0x0B ACK Protocol=Read word
4.204636583333333,SMBus,Command BatteryStatus 0x16
4.204997583333333,SMBus,Read address 0x0B ACK Protocol=Read word
4.205265833333334,SMBus,BatteryStatus 0x900A OVER CHARGED ALARM=1, TERMINATE CHARGE ALARM=0, OVER TEMP ALARM=1, TERMINATE DISCHARGE ALARM=0, REMAINING CAPACITY ALARM=0, REMAINING TIME ALARM=0, INITIALIZED=0, DISCHARGING=0, FULLY CHARGED=0, FULLY DISCHARGED=0, ErrorCode=ReservedCommand
4.205655250000000,SMBus,PEC 0x09 OK
4.207515166666667,SMBus,Write address 0x0B ACK Protocol=Read word
4.207665333333333,SMBus,Command ChargingCurrent 0x14
4.208039083333333,SMBus,Read address 0x0B ACK Protocol=Read word
4.208307500000000,SMBus,Word 0x0000 ACK
4.208649916666666,SMBus,PEC 0xF2 OK
4.210531166666667,SMBus,Write address 0x0B ACK Protocol=Read word
4.210681333333333,SMBus,Command BatteryStatus 0x16
4.211042333333333,SMBus,Read address 0x0B ACK Protocol=Read word
4.211310666666667,SMBus,BatteryStatus 0x0000 OVER CHARGED ALARM=0, TERMINATE CHARGE ALARM=0, OVER TEMP ALARM=0, TERMINATE DISCHARGE ALARM=0, REMAINING CAPACITY ALARM=0, REMAINING TIME ALARM=0, INITIALIZED=0, DISCHARGING=0, FULLY CHARGED=0, FULLY DISCHARGED=0, ErrorCode=OK
4.211653166666666,SMBus,Bad PEC 0xE4 should be 0xDE
4.213700500000000,SMBus,Write address 0x0B ACK Protocol=Read word
4.213850666666667,SMBus,Command Temperature 0x08
4.214211666666666,SMBus,Read address 0x0B ACK Protocol=Read word
4.214478750000000,SMBus,Word 0x870B ACK
4.214822500000000,SMBus,PEC 0x91 OK
4.216729250000000,SMBus,Write address 0x0B ACK Protocol=Read word
4.216879416666667,SMBus,Command <error> 0x3B
4.217253166666667,SMBus,Read address 0x0B ACK Protocol=Read word
4.217520583333333,SMBus,Word 0x890B ACK
4.217864000000000,SMBus,PEC 0xD4 OK
4.219758000000000,SMBus,Write address 0x0B ACK Protocol=Read word
4.219908166666666,SMBus,Command Voltage 0x09
4.220269166666666,SMBus,Read address 0x0B ACK Protocol=Read word
4.220536666666667,SMBus,Word 0x8C1D ACK
4.220914583333333,SMBus,PEC 0x72 OK
4.223029583333333,SMBus,Write address 0x0B ACK Protocol=Read word
4.223192500000000,SMBus,Command RemainingCapacity 0x0F
4.223515166666667,SMBus,Read address 0x0B ACK Protocol=Read word
4.223783583333334,SMBus,Word 0x0000 ACK
4.224147833333333,SMBus,PEC 0x1F OK
4.225943333333333,SMBus,Write address 0x0B ACK Protocol=Read word
4.226093500000000,SMBus,Command FullChargeCapacity 0x10
4.226428916666666,SMBus,Read address 0x0B ACK Protocol=Read word
4.226697333333333,SMBus,Word 0x0000 ACK
4.227039750000000,SMBus,PEC 0xAA OK
4.228857083333334,SMBus,Write address 0x0B ACK Protocol=Read word
4.229007250000000,SMBus,Command Current 0x0A
4.229381000000000,SMBus,Read address 0x0B ACK Protocol=Read word
4.229649416666667,SMBus,Word 0x0000 ACK
4.230013416666667,SMBus,PEC 0x51 OK
4.231770833333333,SMBus,Write address 0x0B ACK Protocol=Read word
4.231921000000000,SMBus,Command RunTimeToEmpty 0x11
4.232269250000000,SMBus,Read address 0x0B ACK Protocol=Read word
4.232537000000000,SMBus,Word 0xFFFF ACK
4.232880000000000,SMBus,PEC 0x98 OK
4.234722916666667,SMBus,Write address 0x0B ACK Protocol=Read word
4.234873083333333,SMBus,Command AverageCurrent 0x0B
4.235246833333333,SMBus,Read address 0x0B ACK Protocol=Read word
4.235515250000000,SMBus,Word 0x0000 ACK
4.235879500000000,SMBus,PEC 0x47 OK
4.237738916666666,SMBus,Write address 0x0B ACK Protocol=Read word
4.237889083333333,SMBus,Command AverageTimeToFull 0x13
4.238250083333333,SMBus,Read address 0x0B ACK Protocol=Read word
4.238517750000000,SMBus,Word 0xFFFF ACK
4.238860916666667,SMBus,PEC 0xB4 OK
4.240652583333334,SMBus,Write address 0x0B ACK Protocol=Read word
4.240802750000000,SMBus,Command AverageTimeToEmpty 0x12
4.241163833333333,SMBus,Read address 0x0B ACK Protocol=Read word
4.241431250000000,SMBus,Word 0xFFFF ACK
4.241774666666666,SMBus,PEC 0xA2 OK
4.243821916666667,SMBus,Write address 0x0B ACK Protocol=Read word
4.243972083333333,SMBus,Command CycleCount 0x17
4.244345916666667,SMBus,Read address 0x0B ACK Protocol=Read word
4.244614333333334,SMBus,Word 0x1405 ACK
4.244956750000000,SMBus,PEC 0xD0 OK
4.246850750000000,SMBus,Write address 0x0B ACK Protocol=Read word
4.247000916666667,SMBus,Command MaxError 0x0C
4.247374666666667,SMBus,Read address 0x0B ACK Protocol=Read word
4.247643083333333,SMBus,Word 0x0000 ACK
4.248020250000000,SMBus,PEC 0x25 OK
4.249879500000000,SMBus,Write address 0x0B ACK Protocol=Read word
4.250029666666666,SMBus,Command RelativeStateOfCharge 0x0D
4.250390666666667,SMBus,Read address 0x0B ACK Protocol=Read word
4.250659000000000,SMBus,Word 0x0000 ACK
4.251023166666666,SMBus,PEC 0x33 OK
4.253036000000000,SMBus,Write address 0x0B ACK Protocol=Block write
4.253186166666667,SMBus,Command ManufacturerData 0x23
4.253547250000000,SMBus,Read address 0x0B ACK Protocol=Block write
4.253866750000000,SMBus,Byte count 0x0E
4.254060583333334,SMBus,Byte 0x01 ACK
4.254251750000000,SMBus,Byte 0x2D ACK
4.254442750000000,SMBus,Byte 0x01 ACK
4.254621583333333,SMBus,Byte 0x2D ACK
4.254801083333334,SMBus,Byte 0x00 ACK
4.254979166666667,SMBus,Byte 0x00 ACK
4.255159583333334,SMBus,Byte 0x02 ACK
4.255351250000000,SMBus,Byte 0x00 ACK
4.255512666666666,SMBus,Byte 0xC4 ACK
4.255721250000000,SMBus,Byte 0x0E ACK
4.255870500000000,SMBus,Byte 0xC6 ACK
4.256078916666667,SMBus,Byte 0x0E ACK
4.256257500000000,SMBus,Byte 0x07 ACK
4.256437000000000,SMBus,Byte 0x30 ACK
4.256586166666667,SMBus,PEC 0xAC OK
4.258454583333333,SMBus,Write address 0x0B ACK Protocol=Block write
4.258604750000000,SMBus,Command <error> 0x30
4.258965750000000,SMBus,Read address 0x0B ACK Protocol=Block write
4.259400250000000,SMBus,Byte count 0x0A
4.259593750000000,SMBus,Byte 0x70 ACK
4.259742750000000,SMBus,Byte 0x9C ACK
4.259950416666666,SMBus,Byte 0x5B ACK
4.260129750000000,SMBus,Byte 0x1C ACK
4.260229250000000,SMBus,Byte 0xA1 ACK
4.260422666666667,SMBus,Byte 0x12 NACK
4.260599333333333,SMBus,Byte 0x25 NACK
4.260780500000000,SMBus,Byte 0x80 ACK
4.260959416666667,SMBus,Byte 0x02 NACK
4.261138333333333,SMBus,Byte 0x80 ACK
4.261317250000000,SMBus,Bad PEC 0x02 should be 0x7C
