Time [s], Analyzer Name, Decoded Protocol Result,,,,,,,,,,
0.191232333333333,SMBus,Write address 0x0B ACK Protocol=Read byte,,,,,,,,,,
0.1913825,SMBus,Command SpecificationInfo 0x1A,,,,,,,,,,
0.192650833333333,SMBus,Read address 0x0B ACK Protocol=Read byte,,,,,,,,,,
0.192925583333333,SMBus,Byte 0x31 ACK,,,,,,,,,,
0.193125,SMBus,Bad PEC 0x00 should be 0x9D,,,,,,,,,,
0.194158833333333,SMBus,Write address 0x0B ACK Protocol=Read word,,,,,,,,,,
0.194309,SMBus,Command BatteryMode 0x03,,,,,,,,,,
0.19467,SMBus,Read address 0x0B ACK Protocol=Read word,,,,,,,,,,
0.194951166666667,SMBus,BatteryMode 0x00E0 INTERNAL_CHARGE_CONTROLLER=0, PRIMARY_BATTERY_SUPPORT=0, CONDITION_FLAG=1, CHARGE_CONTROLLER_ENABLED=0, PRIMARY_BATTERY=0, ALARM_MODE=0, CHARGER_MODE=0, CAPACITY_MODE=0,,,
0.195329166666667,SMBus,PEC 0x59 OK,,,,,,,,,,
0.196459083333333,SMBus,Write address 0x0B ACK Protocol=Write word,,,,,,,,,,
0.19660925,SMBus,Command BatteryMode 0x03,,,,,,,,,,
0.196903166666667,SMBus,BatteryMode 0x04E0 INTERNAL_CHARGE_CONTROLLER=0, PRIMARY_BATTERY_SUPPORT=0, CONDITION_FLAG=1, CHARGE_CONTROLLER_ENABLED=0, PRIMARY_BATTERY=0, ALARM_MODE=0, CHARGER_MODE=0, CAPACITY_MODE=0,,,
0.197286583333333,SMBus,PEC 0x54 OK,,,,,,,,,,
0.198312166666667,SMBus,Write address 0x0B ACK Protocol=Read word,,,,,,,,,,
0.19846225,SMBus,Command BatteryMode 0x03,,,,,,,,,,
0.198823333333333,SMBus,Read address 0x0B ACK Protocol=Read word,,,,,,,,,,
0.199091666666667,SMBus,BatteryMode 0x04E0 INTERNAL_CHARGE_CONTROLLER=0, PRIMARY_BATTERY_SUPPORT=0, CONDITION_FLAG=1, CHARGE_CONTROLLER_ENABLED=0, PRIMARY_BATTERY=0, ALARM_MODE=0, CHARGER_MODE=0, CAPACITY_MODE=0,,,
0.199468083333333,SMBus,PEC 0x0D OK,,,,,,,,,,
0.200523,SMBus,Write address 0x0B ACK Protocol=Read word,,,,,,,,,,
0.200673166666667,SMBus,Command DesignCapacity 0x18,,,,,,,,,,
0.201034166666667,SMBus,Read address 0x0B ACK Protocol=Read word,,,,,,,,,,
0.201301916666667,SMBus,Word 0xF015 ACK,,,,,,,,,,
0.201667333333333,SMBus,PEC 0x65 OK,,,,,,,,,,
0.202721,SMBus,Write address 0x0B ACK Protocol=Read word,,,,,,,,,,
0.202871166666667,SMBus,Command DesignVoltage 0x19,,,,,,,,,,
0.20323225,SMBus,Read address 0x0B ACK Protocol=Read word,,,,,,,,,,
0.203500583333333,SMBus,Word 0x302A ACK,,,,,,,,,,
0.203864666666667,SMBus,PEC 0x23 OK,,,,,,,,,,
0.204906333333333,SMBus,Write address 0x0B ACK Protocol=Read word,,,,,,,,,,
0.2050565,SMBus,Command ManufactureDate 0x1B,,,,,,,,,,
0.2054175,SMBus,Read address 0x0B ACK Protocol=Read word,,,,,,,,,,
0.205686,SMBus,ManufactureDate 0x9C3D 1/29/1994,,,,,,,,,,
0.206028333333333,SMBus,PEC 0x8E OK,,,,,,,,,,
0.207117166666667,SMBus,Write address 0x0B ACK Protocol=Read word,,,,,,,,,,
0.207267333333333,SMBus,Command SerialNumber 0x1C,,,,,,,,,,
0.207628333333333,SMBus,Read address 0x0B ACK Protocol=Read word,,,,,,,,,,
0.20789675,SMBus,Word 0x6728 ACK,,,,,,,,,,
0.20828575,SMBus,PEC 0x04 OK,,,,,,,,,,
0.209328,SMBus,Write address 0x0B ACK Protocol=Block write,,,,,,,,,,
0.209478166666667,SMBus,Command ManufacturerName 0x20,,,,,,,,,,
0.209877583333333,SMBus,Read address 0x0B ACK Protocol=Block write,,,,,,,,,,
0.210235333333333,SMBus,Byte count 0x06,,,,,,,,,,
0.210428083333333,SMBus,Byte 0x4C ACK,,,,,,,,,,
0.210606833333333,SMBus,Byte 0x47 ACK,,,,,,,,,,
0.210786166666667,SMBus,Byte 0x43 ACK,,,,,,,,,,
0.210965,SMBus,Byte 0x00 ACK,,,,,,,,,,
0.211144,SMBus,Byte 0x31 ACK,,,,,,,,,,
0.211322833333333,SMBus,Byte 0x31 ACK,,,,,,,,,,
0.211472416666667,SMBus,PEC 0xCC OK,,,,,,,,,,
0.212599583333333,SMBus,Write address 0x0B ACK Protocol=Block write,,,,,,,,,,
0.21274975,SMBus,Command DeviceName 0x21,,,,,,,,,,
0.213200166666667,SMBus,Read address 0x0B ACK Protocol=Block write,,,,,,,,,,
0.2136475,SMBus,Byte count 0x0B,,,,,,,,,,
0.213840083333333,SMBus,Byte 0x4C ACK,,,,,,,,,,
0.214019333333333,SMBus,Byte 0x4E ACK,,,,,,,,,,
0.214198166666667,SMBus,Byte 0x56 ACK,,,,,,,,,,
0.214376916666667,SMBus,Byte 0x2D ACK,,,,,,,,,,
0.21455675,SMBus,Byte 0x34 ACK,,,,,,,,,,
0.214734833333333,SMBus,Byte 0x32 ACK,,,,,,,,,,
0.214913416666667,SMBus,Byte 0x54 ACK,,,,,,,,,,
0.215093166666667,SMBus,Byte 0x34 ACK,,,,,,,,,,
0.215272666666667,SMBus,Byte 0x39 ACK,,,,,,,,,,
0.215461,SMBus,Byte 0x31 ACK,,,,,,,,,,
0.215642,SMBus,Byte 0x31 ACK,,,,,,,,,,
0.215791833333333,SMBus,PEC 0x86 OK,,,,,,,,,,
0.217328,SMBus,Write address 0x0B ACK Protocol=Block write,,,,,,,,,,
0.217478166666667,SMBus,Command DeviceChemistry 0x22,,,,,,,,,,
0.2178775,SMBus,Read address 0x0B ACK Protocol=Block write,,,,,,,,,,
0.218197,SMBus,Byte count 0x04,,,,,,,,,,
0.2183895,SMBus,Byte 0x4C ACK,,,,,,,,,,
0.218568583333333,SMBus,Byte 0x49 ACK,,,,,,,,,,
0.218747333333333,SMBus,Byte 0x4F ACK,,,,,,,,,,
0.218926666666667,SMBus,Byte 0x4E ACK,,,,,,,,,,
0.219110916666667,SMBus,PEC 0x31 OK,,,,,,,,,,
0.22028,SMBus,Write address 0x0B ACK Protocol=Process call,,,,,,,,,,
0.220430166666667,SMBus,Command OptionalMfgFunction4 0x3C,,,,,,,,,,
0.220813583333333,SMBus,Byte count 0x04,,,,,,,,,,
0.221002083333333,SMBus,Byte 0x00 ACK,,,,,,,,,,
0.221197,SMBus,Byte 0x2D ACK,,,,,,,,,,
0.221388666666667,SMBus,Byte 0x00 ACK,,,,,,,,,,
0.221577166666667,SMBus,Byte 0x00 ACK,,,,,,,,,,
0.221772,SMBus,PEC 0x0C OK,,,,,,,,,,
0.327066,SMBus,Write address 0x0B ACK Protocol=Block write,,,,,,,,,,
0.327216166666667,SMBus,Command OptionalMfgFunction4 0x3C,,,,,,,,,,
0.327653833333333,SMBus,Read address 0x0B ACK Protocol=Block write,,,,,,,,,,
0.327986166666667,SMBus,Byte count 0x10,,,,,,,,,,
0.328179,SMBus,Byte 0x4C ACK,,,,,,,,,,
0.328357583333333,SMBus,Byte 0x65 ACK,,,,,,,,,,
0.328537083333333,SMBus,Byte 0x6E ACK,,,,,,,,,,
0.328715666666667,SMBus,Byte 0x6F ACK,,,,,,,,,,
0.328895416666667,SMBus,Byte 0x76 ACK,,,,,,,,,,
0.329086166666667,SMBus,Byte 0x6F ACK,,,,,,,,,,
0.329265416666667,SMBus,Byte 0x20 ACK,,,,,,,,,,
0.32944425,SMBus,Byte 0x4A ACK,,,,,,,,,,
0.329623083333333,SMBus,Byte 0x61 ACK,,,,,,,,,,
0.329802333333333,SMBus,Byte 0x70 ACK,,,,,,,,,,
0.3299945,SMBus,Byte 0x61 ACK,,,,,,,,,,
0.330185416666667,SMBus,Byte 0x6E ACK,,,,,,,,,,
0.330335,SMBus,Byte 0x91 ACK,,,,,,,,,,
0.3305435,SMBus,Byte 0x2E ACK,,,,,,,,,,
0.330722833333333,SMBus,Byte 0x5D ACK,,,,,,,,,,
0.3308845,SMBus,Byte 0xE6 ACK,,,,,,,,,,
0.331085,SMBus,PEC 0x4B OK,,,,,,,,,,
0.332216166666667,SMBus,Write address 0x0B ACK Protocol=Read word,,,,,,,,,,
0.332366333333333,SMBus,Command <error> 0x35,,,,,,,,,,
0.332740083333333,SMBus,Read address 0x0B ACK Protocol=Read word,,,,,,,,,,
0.333007416666667,SMBus,Word 0xE000 ACK,,,,,,,,,,
0.333385583333333,SMBus,Bad PEC 0x74 should be 0x69,,,,,,,,,,
0.334657,SMBus,Write address 0x0B ACK Protocol=Block write,,,,,,,,,,
0.334807166666667,SMBus,Command <error> 0x37,,,,,,,,,,
0.335168166666667,SMBus,Read address 0x0B ACK Protocol=Block write,,,,,,,,,,
0.335564333333333,SMBus,Byte count 0x08,,,,,,,,,,
0.335756833333333,SMBus,Byte 0x01 ACK,,,,,,,,,,
0.335935666666667,SMBus,Byte 0x00 ACK,,,,,,,,,,
0.336114916666667,SMBus,Byte 0x07 ACK,,,,,,,,,,
0.33629375,SMBus,Byte 0x00 ACK,,,,,,,,,,
0.336443583333333,SMBus,Byte 0xC2 ACK,,,,,,,,,,
0.336651583333333,SMBus,Byte 0x01 ACK,,,,,,,,,,
0.336801416666667,SMBus,Byte 0xC2 ACK,,,,,,,,,,
0.337009666666667,SMBus,Byte 0x01 ACK,,,,,,,,,,
0.33715925,SMBus,PEC 0xEC OK,,,,,,,,,,
0.338312,SMBus,Write address 0x0B ACK Protocol=Block write,,,,,,,,,,
0.338462083333333,SMBus,Command OptionalMfgFunction5 0x2F,,,,,,,,,,
0.338848666666667,SMBus,Read address 0x0B ACK Protocol=Block write,,,,,,,,,,
0.339168166666667,SMBus,Byte count 0x0B,,,,,,,,,,
0.339361166666667,SMBus,Byte 0x31 ACK,,,,,,,,,,
0.339552833333333,SMBus,Byte 0x5A ACK,,,,,,,,,,
0.339732083333333,SMBus,Byte 0x4A ACK,,,,,,,,,,
0.339910416666667,SMBus,Byte 0x33 ACK,,,,,,,,,,
0.340089166666667,SMBus,Byte 0x4A ACK,,,,,,,,,,
0.340268916666667,SMBus,Byte 0x31 ACK,,,,,,,,,,
0.340460666666667,SMBus,Byte 0x31 ACK,,,,,,,,,,
0.340651833333333,SMBus,Byte 0x4D ACK,,,,,,,,,,
0.340830666666667,SMBus,Byte 0x31 ACK,,,,,,,,,,
0.341009916666667,SMBus,Byte 0x32 ACK,,,,,,,,,,
0.341186583333333,SMBus,Byte 0x58 ACK,,,,,,,,,,
0.341360833333333,SMBus,PEC 0x25 OK,,,,,,,,,,
0.34243975,SMBus,Write address 0x0B ACK Protocol=Read word,,,,,,,,,,
0.342589916666667,SMBus,Command OptionalMfgFunction2 0x3E,,,,,,,,,,
0.342950916666667,SMBus,Read address 0x0B ACK Protocol=Read word,,,,,,,,,,
0.34321925,SMBus,Word 0x2100 ACK,,,,,,,,,,
0.343582833333333,SMBus,PEC 0x1B OK,,,,,,,,,,
0.344893416666667,SMBus,Write address 0x0B ACK Protocol=Read word,,,,,,,,,,
0.345043583333333,SMBus,Command OptionalMfgFunction1 0x3F,,,,,,,,,,
0.345404583333333,SMBus,Read address 0x0B ACK Protocol=Read word,,,,,,,,,,
0.345672916666667,SMBus,Word 0x283F ACK,,,,,,,,,,
0.346037,SMBus,PEC 0x0D OK,,,,,,,,,,
0.347180916666667,SMBus,Write address 0x0B ACK Protocol=Read word,,,,,,,,,,
0.347331083333333,SMBus,Command OptionalMfgFunction1 0x3F,,,,,,,,,,
0.347692083333333,SMBus,Read address 0x0B ACK Protocol=Read word,,,,,,,,,,
0.3479605,SMBus,Word 0x283F ACK,,,,,,,,,,
0.348324666666667,SMBus,PEC 0x0D OK,,,,,,,,,,
0.349442916666667,SMBus,Write address 0x0B ACK Protocol=Read word,,,,,,,,,,
0.349593083333333,SMBus,Command ManufacturerAccess 0x00,,,,,,,,,,
0.349954083333333,SMBus,Read address 0x0B ACK Protocol=Read word,,,,,,,,,,
0.350222416666667,SMBus,Word 0x0210 ACK,,,,,,,,,,
0.350564916666667,SMBus,PEC 0x97 OK,,,,,,,,,,
0.351641,SMBus,Write address 0x0B ACK Protocol=Read word,,,,,,,,,,
0.351791166666667,SMBus,Command BatteryStatus 0x16,,,,,,,,,,
0.352164916666667,SMBus,Read address 0x0B ACK Protocol=Read word,,,,,,,,,,
0.352432166666667,SMBus,BatteryStatus 0x900A OVER CHARGED ALARM=1, TERMINATE CHARGE ALARM=0, OVER TEMP ALARM=1, TERMINATE DISCHARGE ALARM=0, REMAINING CAPACITY ALARM=0, REMAINING TIME ALARM=0, INITIALIZED=0, DISCHARGING=0, FULLY CHARGED=0, FULLY DISCHARGED=0, ErrorCode=ReservedCommand
0.3527975,SMBus,PEC 0x09 OK,,,,,,,,,,
0.354107416666667,SMBus,Write address 0x0B ACK Protocol=Read word,,,,,,,,,,
0.354257583333333,SMBus,Command ChargingCurrent 0x14,,,,,,,,,,
0.354618583333333,SMBus,Read address 0x0B ACK Protocol=Read word,,,,,,,,,,
0.354886916666667,SMBus,Word 0x0000 ACK,,,,,,,,,,
0.355229416666667,SMBus,PEC 0xF2 OK,,,,,,,,,,
0.356292666666667,SMBus,Write address 0x0B ACK Protocol=Read word,,,,,,,,,,
0.356442833333333,SMBus,Command ChargingVoltage 0x15,,,,,,,,,,
0.356829416666667,SMBus,Read address 0x0B ACK Protocol=Read word,,,,,,,,,,
0.357097833333333,SMBus,Word 0x0000 ACK,,,,,,,,,,
0.35744025,SMBus,PEC 0xE4 OK,,,,,,,,,,
0.35849075,SMBus,Write address 0x0B ACK Protocol=Read word,,,,,,,,,,
0.358640916666667,SMBus,Command Temperature 0x08,,,,,,,,,,
0.35901475,SMBus,Read address 0x0B ACK Protocol=Read word,,,,,,,,,,
0.359282166666667,SMBus,Word 0x890B ACK,,,,,,,,,,
0.359647,SMBus,PEC 0x47 OK,,,,,,,,,,
0.360688833333333,SMBus,Write address 0x0B ACK Protocol=Read word,,,,,,,,,,
0.360839,SMBus,Command <error> 0x3B,,,,,,,,,,
0.3612,SMBus,Read address 0x0B ACK Protocol=Read word,,,,,,,,,,
0.361467416666667,SMBus,Word 0x870B ACK,,,,,,,,,,
0.361832333333333,SMBus,PEC 0x02 OK,,,,,,,,,,
0.362874166666667,SMBus,Write address 0x0B ACK Protocol=Read word,,,,,,,,,,
0.363024333333333,SMBus,Command Voltage 0x09,,,,,,,,,,
0.363385333333333,SMBus,Read address 0x0B ACK Protocol=Read word,,,,,,,,,,
0.363653,SMBus,Word 0x8C1D ACK,,,,,,,,,,
0.364017666666667,SMBus,PEC 0x72 OK,,,,,,,,,,
0.365046666666667,SMBus,Write address 0x0B ACK Protocol=Read word,,,,,,,,,,
0.365196833333333,SMBus,Command RemainingCapacity 0x0F,,,,,,,,,,
0.36553225,SMBus,Read address 0x0B ACK Protocol=Read word,,,,,,,,,,
0.365800666666667,SMBus,Word 0x0000 ACK,,,,,,,,,,
0.366164666666667,SMBus,PEC 0x1F OK,,,,,,,,,,
0.367231916666667,SMBus,Write address 0x0B ACK Protocol=Read word,,,,,,,,,,
0.367382083333333,SMBus,Command FullChargeCapacity 0x10,,,,,,,,,,
0.36773675,SMBus,Read address 0x0B ACK Protocol=Read word,,,,,,,,,,
0.3680115,SMBus,Word 0x0000 ACK,,,,,,,,,,
0.368353916666667,SMBus,PEC 0xAA OK,,,,,,,,,,
0.36943,SMBus,Write address 0x0B ACK Protocol=Read word,,,,,,,,,,
0.369580166666667,SMBus,Command Current 0x0A,,,,,,,,,,
0.369954,SMBus,Read address 0x0B ACK Protocol=Read word,,,,,,,,,,
0.370222333333333,SMBus,Word 0x0000 ACK,,,,,,,,,,
0.3705875,SMBus,PEC 0x51 OK,,,,,,,,,,
0.371628083333333,SMBus,Write address 0x0B ACK Protocol=Read word,,,,,,,,,,
0.37177825,SMBus,Command RunTimeToEmpty 0x11,,,,,,,,,,
0.3721265,SMBus,Read address 0x0B ACK Protocol=Read word,,,,,,,,,,
0.372393583333333,SMBus,Word 0xFFFF ACK,,,,,,,,,,
0.372750083333333,SMBus,PEC 0x98 OK,,,,,,,,,,
0.374912416666667,SMBus,Write address 0x0B ACK Protocol=Read word,,,,,,,,,,
0.375062583333333,SMBus,Command AverageCurrent 0x0B,,,,,,,,,,
0.375436333333333,SMBus,Read address 0x0B ACK Protocol=Read word,,,,,,,,,,
0.375711166666667,SMBus,Word 0x0000 ACK,,,,,,,,,,
0.376082166666667,SMBus,PEC 0x47 OK,,,,,,,,,,
0.37723825,SMBus,Write address 0x0B ACK Protocol=Read word,,,,,,,,,,
0.377388416666667,SMBus,Command AverageTimeToFull 0x13,,,,,,,,,,
0.37776225,SMBus,Read address 0x0B ACK Protocol=Read word,,,,,,,,,,
0.378030166666667,SMBus,Word 0xFFFF ACK,,,,,,,,,,
0.378373083333333,SMBus,PEC 0xB4 OK,,,,,,,,,,
0.379551333333333,SMBus,Write address 0x0B ACK Protocol=Read word,,,,,,,,,,
0.3797015,SMBus,Command AverageTimeToEmpty 0x12,,,,,,,,,,
0.3800625,SMBus,Read address 0x0B ACK Protocol=Read word,,,,,,,,,,
0.380345166666667,SMBus,Word 0xFFFF ACK,,,,,,,,,,
0.380686166666667,SMBus,PEC 0xA2 OK,,,,,,,,,,
0.381864416666667,SMBus,Write address 0x0B ACK Protocol=Read word,,,,,,,,,,
0.382014583333333,SMBus,Command CycleCount 0x17,,,,,,,,,,
0.382388416666667,SMBus,Read address 0x0B ACK Protocol=Read word,,,,,,,,,,
0.38265675,SMBus,Word 0x1405 ACK,,,,,,,,,,
0.38299925,SMBus,PEC 0xD0 OK,,,,,,,,,,
0.384433166666667,SMBus,Write address 0x0B ACK Protocol=Read word,,,,,,,,,,
0.38458325,SMBus,Command MaxError 0x0C,,,,,,,,,,
0.384944333333333,SMBus,Read address 0x0B ACK Protocol=Read word,,,,,,,,,,
0.385219083333333,SMBus,Word 0x0000 ACK,,,,,,,,,,
0.385589416666667,SMBus,PEC 0x25 OK,,,,,,,,,,
0.386759,SMBus,Write address 0x0B ACK Protocol=Read word,,,,,,,,,,
0.386909166666667,SMBus,Command RelativeStateOfCharge 0x0D,,,,,,,,,,
0.387270166666667,SMBus,Read address 0x0B ACK Protocol=Read word,,,,,,,,,,
0.387538583333333,SMBus,Word 0x0000 ACK,,,,,,,,,,
0.387914916666667,SMBus,PEC 0x33 OK,,,,,,,,,,
0.389097666666667,SMBus,Write address 0x0B ACK Protocol=Block write,,,,,,,,,,
0.389247833333333,SMBus,Command ManufacturerData 0x23,,,,,,,,,,
0.389621583333333,SMBus,Read address 0x0B ACK Protocol=Block write,,,,,,,,,,
0.389941083333333,SMBus,Byte count 0x0E,,,,,,,,,,
0.390133833333333,SMBus,Byte 0x01 ACK,,,,,,,,,,
0.390312583333333,SMBus,Byte 0x2D ACK,,,,,,,,,,
0.390492583333333,SMBus,Byte 0x01 ACK,,,,,,,,,,
0.390684083333333,SMBus,Byte 0x2D ACK,,,,,,,,,,
0.390863333333333,SMBus,Byte 0x00 ACK,,,,,,,,,,
0.39105425,SMBus,Byte 0x00 ACK,,,,,,,,,,
0.391170583333333,SMBus,Byte 0x01 ACK,,,,,,,,,,
0.391362,SMBus,Byte 0x00 ACK,,,,,,,,,,
0.391540833333333,SMBus,Byte 0x62 NACK,,,,,,,,,,
0.391701666666667,SMBus,Byte 0x07 ACK,,,,,,,,,,
0.391899083333333,SMBus,Byte 0x62 NACK,,,,,,,,,,
0.39207225,SMBus,Byte 0x07 ACK,,,,,,,,,,
0.392269583333333,SMBus,Byte 0x03 NACK,,,,,,,,,,
0.392430083333333,SMBus,Byte 0x18 ACK,,,,,,,,,,
0.392627083333333,SMBus,Bad PEC 0x5F should be 0xD2,,,,,,,,,,
0.39413275,SMBus,Write address 0x0B ACK Protocol=Block write,,,,,,,,,,
0.394282916666667,SMBus,Command <error> 0x30,,,,,,,,,,
0.394643916666667,SMBus,Read address 0x0B ACK Protocol=Block write,,,,,,,,,,
0.395078416666667,SMBus,Byte count 0x0A,,,,,,,,,,
0.395272083333333,SMBus,Byte 0x70 ACK,,,,,,,,,,
0.395433666666667,SMBus,Byte 0x9C ACK,,,,,,,,,,
0.395642083333333,SMBus,Byte 0x5B ACK,,,,,,,,,,
0.395817583333333,SMBus,Byte 0x19 ACK,,,,,,,,,,
0.395970416666667,SMBus,Byte 0x84 ACK,,,,,,,,,,
0.3961785,SMBus,Byte 0x4A ACK,,,,,,,,,,
0.39632825,SMBus,Byte 0x97 ACK,,,,,,,,,,
0.396536583333333,SMBus,Byte 0x00 ACK,,,,,,,,,,
0.396714916666667,SMBus,Byte 0x0B ACK,,,,,,,,,,
0.39690375,SMBus,Byte 0x00 ACK,,,,,,,,,,
0.39707875,SMBus,PEC 0x08 OK,,,,,,,,,,
0.398605583333333,SMBus,Write address 0x0B ACK Protocol=Read word,,,,,,,,,,
0.39875575,SMBus,Command ManufacturerAccess 0x00,,,,,,,,,,
0.39911675,SMBus,Read address 0x0B ACK Protocol=Read word,,,,,,,,,,
0.399391583333333,SMBus,Word 0x0210 ACK,,,,,,,,,,
0.399740333333333,SMBus,PEC 0x97 OK,,,,,,,,,,
0.400957,SMBus,Write address 0x0B ACK Protocol=Read word,,,,,,,,,,
0.401107166666667,SMBus,Command BatteryStatus 0x16,,,,,,,,,,
0.401468166666667,SMBus,Read address 0x0B ACK Protocol=Read word,,,,,,,,,,
0.401736583333333,SMBus,BatteryStatus 0x900A OVER CHARGED ALARM=1, TERMINATE CHARGE ALARM=0, OVER TEMP ALARM=1, TERMINATE DISCHARGE ALARM=0, REMAINING CAPACITY ALARM=0, REMAINING TIME ALARM=0, INITIALIZED=0, DISCHARGING=0, FULLY CHARGED=0, FULLY DISCHARGED=0, ErrorCode=ReservedCommand
0.4021005,SMBus,PEC 0x09 OK,,,,,,,,,,
0.403295666666667,SMBus,Write address 0x0B ACK Protocol=Read word,,,,,,,,,,
0.403445833333333,SMBus,Command ChargingCurrent 0x14,,,,,,,,,,
0.403806833333333,SMBus,Read address 0x0B ACK Protocol=Read word,,,,,,,,,,
0.404075166666667,SMBus,Word 0x0000 ACK,,,,,,,,,,
0.404417666666667,SMBus,PEC 0xF2 OK,,,,,,,,,,
0.405634333333333,SMBus,Write address 0x0B ACK Protocol=Read word,,,,,,,,,,
0.4057845,SMBus,Command ChargingVoltage 0x15,,,,,,,,,,
0.4061455,SMBus,Read address 0x0B ACK Protocol=Read word,,,,,,,,,,
0.406413833333333,SMBus,Word 0x0000 ACK,,,,,,,,,,
0.406723,SMBus,Bad PEC 0x72 should be 0xE4,,,,,,,,,,
0.407960166666667,SMBus,Write address 0x0B ACK Protocol=Read word,,,,,,,,,,
0.408110333333333,SMBus,Command Temperature 0x08,,,,,,,,,,
0.408484083333333,SMBus,Read address 0x0B ACK Protocol=Read word,,,,,,,,,,
0.408751916666667,SMBus,Word 0x890B ACK,,,,,,,,,,
0.409129666666667,SMBus,Bad PEC 0x71 should be 0x47,,,,,,,,,,
0.410324333333333,SMBus,Write address 0x0B ACK Protocol=Read word,,,,,,,,,,
0.4104745,SMBus,Command <error> 0x3B,,,,,,,,,,
0.410835583333333,SMBus,Read address 0x0B ACK Protocol=Read word,,,,,,,,,,
0.411103416666667,SMBus,Word 0x870B ACK,,,,,,,,,,
0.411481416666667,SMBus,PEC 0x02 OK,,,,,,,,,,
0.412669416666667,SMBus,Write address 0x0B ACK Protocol=Read word,,,,,,,,,,
0.412826,SMBus,Command Voltage 0x09,,,,,,,,,,
0.413187,SMBus,Read address 0x0B ACK Protocol=Read word,,,,,,,,,,
0.413455416666667,SMBus,Word 0x8C1D ACK,,,,,,,,,,
0.413819333333333,SMBus,PEC 0x72 OK,,,,,,,,,,
0.41502725,SMBus,Write address 0x0B ACK Protocol=Read word,,,,,,,,,,
0.415177416666667,SMBus,Command RemainingCapacity 0x0F,,,,,,,,,,
0.415525583333333,SMBus,Read address 0x0B ACK Protocol=Read word,,,,,,,,,,
0.415794,SMBus,Word 0x0000 ACK,,,,,,,,,,
0.41617125,SMBus,PEC 0x1F OK,,,,,,,,,,
0.417365833333333,SMBus,Write address 0x0B ACK Protocol=Read word,,,,,,,,,,
0.417516,SMBus,Command FullChargeCapacity 0x10,,,,,,,,,,
0.417864333333333,SMBus,Read address 0x0B ACK Protocol=Read word,,,,,,,,,,
0.418132666666667,SMBus,Word 0x0000 ACK,,,,,,,,,,
0.418475083333333,SMBus,PEC 0xAA OK,,,,,,,,,,
0.419679,SMBus,Write address 0x0B ACK Protocol=Read word,,,,,,,,,,
0.419829083333333,SMBus,Command Current 0x0A,,,,,,,,,,
0.420202916666667,SMBus,Read address 0x0B ACK Protocol=Read word,,,,,,,,,,
0.42047125,SMBus,Word 0x0000 ACK,,,,,,,,,,
0.420835333333333,SMBus,PEC 0x51 OK,,,,,,,,,,
0.422043166666667,SMBus,Write address 0x0B ACK Protocol=Read word,,,,,,,,,,
0.422193333333333,SMBus,Command RunTimeToEmpty 0x11,,,,,,,,,,
0.422541583333333,SMBus,Read address 0x0B ACK Protocol=Read word,,,,,,,,,,
0.422810416666667,SMBus,Word 0xFFFF ACK,,,,,,,,,,
0.423165166666667,SMBus,PEC 0x98 OK,,,,,,,,,,
0.424637416666667,SMBus,Write address 0x0B ACK Protocol=Read word,,,,,,,,,,
0.424787583333333,SMBus,Command AverageCurrent 0x0B,,,,,,,,,,
0.425161333333333,SMBus,Read address 0x09 NACK Protocol=Read word,,,,,,,,,,
0.4252755,SMBus,Word 0x0000 ACK,,,,,,,,,,
0.425738583333333,SMBus,Bad PEC 0x23 should be 0xEC,,,,,,,,,,
0.426988833333333,SMBus,Write address 0x0B ACK Protocol=Read word,,,,,,,,,,
0.427139,SMBus,Command AverageTimeToFull 0x13,,,,,,,,,,
0.4275,SMBus,Read address 0x0B ACK Protocol=Read word,,,,,,,,,,
0.4277675,SMBus,Word 0xFFFF ACK,,,,,,,,,,
0.428110833333333,SMBus,PEC 0xB4 OK,,,,,,,,,,
0.4293275,SMBus,Write address 0x0B ACK Protocol=Read word,,,,,,,,,,
0.429477666666667,SMBus,Command AverageTimeToEmpty 0x12,,,,,,,,,,
0.429851416666667,SMBus,Read address 0x0B ACK Protocol=Read word,,,,,,,,,,
0.430119166666667,SMBus,Word 0xFFFF ACK,,,,,,,,,,
0.43046225,SMBus,PEC 0xA2 OK,,,,,,,,,,
0.431678916666667,SMBus,Write address 0x0B ACK Protocol=Read word,,,,,,,,,,
0.431829083333333,SMBus,Command CycleCount 0x17,,,,,,,,,,
0.432202833333333,SMBus,Read address 0x0B ACK Protocol=Read word,,,,,,,,,,
0.43247125,SMBus,Word 0x1405 ACK,,,,,,,,,,
0.4328265,SMBus,PEC 0xD0 OK,,,,,,,,,,
0.4343115,SMBus,Write address 0x0B ACK Protocol=Read word,,,,,,,,,,
0.434461666666667,SMBus,Command MaxError 0x0C,,,,,,,,,,
0.434822666666667,SMBus,Read address 0x0B ACK Protocol=Read word,,,,,,,,,,
0.435091,SMBus,Word 0x0000 ACK,,,,,,,,,,
0.43545525,SMBus,PEC 0x25 OK,,,,,,,,,,
0.4366565,SMBus,Write address 0x0B ACK Protocol=Read word,,,,,,,,,,
0.436813083333333,SMBus,Command RelativeStateOfCharge 0x0D,,,,,,,,,,
0.437174083333333,SMBus,Read address 0x0B ACK Protocol=Read word,,,,,,,,,,
0.437442416666667,SMBus,Word 0x0000 ACK,,,,,,,,,,
0.437807,SMBus,PEC 0x33 OK,,,,,,,,,,
0.439014333333333,SMBus,Write address 0x0B ACK Protocol=Block write,,,,,,,,,,
0.4391645,SMBus,Command ManufacturerData 0x23,,,,,,,,,,
0.4395255,SMBus,Read address 0x0B ACK Protocol=Block write,,,,,,,,,,
0.439845,SMBus,Byte count 0x0E,,,,,,,,,,
0.440038083333333,SMBus,Byte 0x01 ACK,,,,,,,,,,
0.440217083333333,SMBus,Byte 0x2D ACK,,,,,,,,,,
0.440395916666667,SMBus,Byte 0x01 ACK,,,,,,,,,,
0.440574666666667,SMBus,Byte 0x2D ACK,,,,,,,,,,
0.440754,SMBus,Byte 0x00 ACK,,,,,,,,,,
0.44093275,SMBus,Byte 0x00 ACK,,,,,,,,,,
0.441048583333333,SMBus,Byte 0x01 ACK,,,,,,,,,,
0.441227916666667,SMBus,Byte 0x00 ACK,,,,,,,,,,
0.441419166666667,SMBus,Byte 0x62 NACK,,,,,,,,,,
0.44158,SMBus,Byte 0x07 ACK,,,,,,,,,,
0.441790916666667,SMBus,Byte 0x62 NACK,,,,,,,,,,
0.441950666666667,SMBus,Byte 0x07 ACK,,,,,,,,,,
0.442147666666667,SMBus,Byte 0x03 NACK,,,,,,,,,,
0.442308416666667,SMBus,Byte 0x18 ACK,,,,,,,,,,
0.442481083333333,SMBus,Bad PEC 0x2F should be 0xD2,,,,,,,,,,
0.44406225,SMBus,Write address 0x0B ACK Protocol=Block write,,,,,,,,,,
0.444212416666667,SMBus,Command <error> 0x30,,,,,,,,,,
0.444573416666667,SMBus,Read address 0x0B ACK Protocol=Block write,,,,,,,,,,
0.445007916666667,SMBus,Byte count 0x0A,,,,,,,,,,
0.445201083333333,SMBus,Byte 0x70 ACK,,,,,,,,,,
0.445350333333333,SMBus,Byte 0x9C ACK,,,,,,,,,,
0.44555725,SMBus,Byte 0x5B ACK,,,,,,,,,,
0.4457375,SMBus,Byte 0x19 ACK,,,,,,,,,,
0.445887083333333,SMBus,Byte 0x84 ACK,,,,,,,,,,
0.446095833333333,SMBus,Byte 0x4A ACK,,,,,,,,,,
0.446244916666667,SMBus,Byte 0x97 ACK,,,,,,,,,,
0.44645325,SMBus,Byte 0x00 ACK,,,,,,,,,,
0.446632333333333,SMBus,Byte 0x0B ACK,,,,,,,,,,
0.446811583333333,SMBus,Byte 0x00 ACK,,,,,,,,,,
0.446983,SMBus,PEC 0x08 OK,,,,,,,,,,
4.175792,SMBus,Write address 0x0B ACK Protocol=Read word,,,,,,,,,,
4.17594216666667,SMBus,Command ManufacturerAccess 0x00,,,,,,,,,,
4.176316,SMBus,Read address 0x0B ACK Protocol=Read word,,,,,,,,,,
4.17658433333333,SMBus,Word 0x0210 ACK,,,,,,,,,,
4.17692683333333,SMBus,PEC 0x97 OK,,,,,,,,,,
4.17879525,SMBus,Write address 0x0B ACK Protocol=Read word,,,,,,,,,,
4.17894541666667,SMBus,Command BatteryStatus 0x16,,,,,,,,,,
4.17930641666667,SMBus,Read address 0x0B ACK Protocol=Read word,,,,,,,,,,
4.17957458333333,SMBus,BatteryStatus 0x900A OVER CHARGED ALARM=1, TERMINATE CHARGE ALARM=0, OVER TEMP ALARM=1, TERMINATE DISCHARGE ALARM=0, REMAINING CAPACITY ALARM=0, REMAINING TIME ALARM=0, INITIALIZED=0, DISCHARGING=0, FULLY CHARGED=0, FULLY DISCHARGED=0, ErrorCode=ReservedCommand
4.17995141666667,SMBus,PEC 0x09 OK,,,,,,,,,,
4.181709,SMBus,Write address 0x0B ACK Protocol=Read word,,,,,,,,,,
4.18185916666667,SMBus,Command ChargingCurrent 0x14,,,,,,,,,,
4.18223291666667,SMBus,Read address 0x0B ACK Protocol=Read word,,,,,,,,,,
4.18250133333333,SMBus,Word 0x0000 ACK,,,,,,,,,,
4.18284375,SMBus,PEC 0xF2 OK,,,,,,,,,,
4.18471216666667,SMBus,Write address 0x0B ACK Protocol=Read word,,,,,,,,,,
4.18486233333333,SMBus,Command ChargingVoltage 0x15,,,,,,,,,,
4.18523616666667,SMBus,Read address 0x0B ACK Protocol=Read word,,,,,,,,,,
4.1855045,SMBus,Word 0x0000 ACK,,,,,,,,,,
4.185847,SMBus,PEC 0xE4 OK,,,,,,,,,,
4.18771541666667,SMBus,Write address 0x0B ACK Protocol=Read word,,,,,,,,,,
4.18786558333333,SMBus,Command Temperature 0x08,,,,,,,,,,
4.18823933333333,SMBus,Read address 0x0B ACK Protocol=Read word,,,,,,,,,,
4.188507,SMBus,Word 0x890B ACK,,,,,,,,,,
4.18887208333333,SMBus,PEC 0x47 OK,,,,,,,,,,
4.19106366666667,SMBus,Write address 0x0B ACK Protocol=Read word,,,,,,,,,,
4.19121383333333,SMBus,Command OptionalMfgFunction3 0x3D,,,,,,,,,,
4.19158758333333,SMBus,Read address 0x0B ACK Protocol=Read word,,,,,,,,,,
4.19185483333333,SMBus,Word 0x880B ACK,,,,,,,,,,
4.19219841666667,SMBus,Bad PEC 0xC1 should be 0xB5,,,,,,,,,,
4.19407958333333,SMBus,Write address 0x0B ACK Protocol=Read word,,,,,,,,,,
4.19422975,SMBus,Command Voltage 0x09,,,,,,,,,,
4.19459083333333,SMBus,Read address 0x0B ACK Protocol=Read word,,,,,,,,,,
4.194872,SMBus,Word 0x8C1D ACK,,,,,,,,,,
4.19523616666667,SMBus,PEC 0x72 OK,,,,,,,,,,
4.19714033333333,SMBus,Write address 0x0B ACK Protocol=Read word,,,,,,,,,,
4.19729691666667,SMBus,Command RemainingCapacity 0x0F,,,,,,,,,,
4.19764508333333,SMBus,Read address 0x0B ACK Protocol=Read word,,,,,,,,,,
4.1979135,SMBus,Word 0x0000 ACK,,,,,,,,,,
4.19827741666667,SMBus,PEC 0x1F OK,,,,,,,,,,
4.20046941666667,SMBus,Write address 0x0B ACK Protocol=Read word,,,,,,,,,,
4.20061958333333,SMBus,Command FullChargeCapacity 0x10,,,,,,,,,,
4.20098058333333,SMBus,Read address 0x0B ACK Protocol=Read word,,,,,,,,,,
4.20124891666667,SMBus,Word 0x0000 ACK,,,,,,,,,,
4.20159141666667,SMBus,PEC 0xAA OK,,,,,,,,,,
4.2035365,SMBus,Write address 0x0B ACK Protocol=Read word,,,,,,,,,,
4.20368666666667,SMBus,Command Current 0x0A,,,,,,,,,,
4.2040605,SMBus,Read address 0x0B ACK Protocol=Read word,,,,,,,,,,
4.20432883333333,SMBus,Word 0x0000 ACK,,,,,,,,,,
4.2046925,SMBus,PEC 0x51 OK,,,,,,,,,,
4.20660358333333,SMBus,Write address 0x0B ACK Protocol=Read word,,,,,,,,,,
4.20675375,SMBus,Command RunTimeToEmpty 0x11,,,,,,,,,,
4.20712116666667,SMBus,Read address 0x0B ACK Protocol=Read word,,,,,,,,,,
4.20739616666667,SMBus,Word 0xFFFF ACK,,,,,,,,,,
4.20773841666667,SMBus,PEC 0x98 OK,,,,,,,,,,
4.20988791666667,SMBus,Write address 0x0B ACK Protocol=Read word,,,,,,,,,,
4.21003808333333,SMBus,Command AverageCurrent 0x0B,,,,,,,,,,
4.21039916666667,SMBus,Read address 0x0B ACK Protocol=Read word,,,,,,,,,,
4.2106675,SMBus,Word 0x0000 ACK,,,,,,,,,,
4.2110325,SMBus,PEC 0x47 OK,,,,,,,,,,
4.21298058333333,SMBus,Write address 0x0B ACK Protocol=Read word,,,,,,,,,,
4.21314358333333,SMBus,Command AverageTimeToFull 0x13,,,,,,,,,,
4.21350458333333,SMBus,Read address 0x0B ACK Protocol=Read word,,,,,,,,,,
4.21377183333333,SMBus,Word 0xFFFF ACK,,,,,,,,,,
4.21411541666667,SMBus,PEC 0xB4 OK,,,,,,,,,,
4.21600933333333,SMBus,Write address 0x0B ACK Protocol=Read word,,,,,,,,,,
4.2161595,SMBus,Command AverageTimeToFull 0x13,,,,,,,,,,
4.21653333333333,SMBus,Read address 0x05 NACK Protocol=Read word,,,,,,,,,,
4.21664783333333,SMBus,Word 0x7FBF NACK,,,,,,,,,,
4.21708291666667,SMBus,Bad PEC 0xA8 should be 0x9D,,,,,,,,,,
4.21902533333333,SMBus,Write address 0x0B ACK Protocol=Read word,,,,,,,,,,
4.2191755,SMBus,Command CycleCount 0x17,,,,,,,,,,
4.2195365,SMBus,Read address 0x0B ACK Protocol=Read word,,,,,,,,,,
4.21980491666667,SMBus,Word 0x1405 ACK,,,,,,,,,,
4.22014733333333,SMBus,PEC 0xD0 OK,,,,,,,,,,
4.22197741666667,SMBus,Write address 0x0B ACK Protocol=Read word,,,,,,,,,,
4.22212758333333,SMBus,Command MaxError 0x0C,,,,,,,,,,
4.22248858333333,SMBus,Read address 0x0B ACK Protocol=Read word,,,,,,,,,,
4.22276341666667,SMBus,Word 0x0000 ACK,,,,,,,,,,
4.223135,SMBus,PEC 0x25 OK,,,,,,,,,,
4.22802216666667,SMBus,Write address 0x0B ACK Protocol=Block write,,,,,,,,,,
4.22817233333333,SMBus,Command ManufacturerData 0x23,,,,,,,,,,
4.22854616666667,SMBus,Read address 0x0B ACK Protocol=Block write,,,,,,,,,,
4.22886566666667,SMBus,Byte count 0x0E,,,,,,,,,,
4.22905841666667,SMBus,Byte 0x01 ACK,,,,,,,,,,
4.22923775,SMBus,Byte 0x2D ACK,,,,,,,,,,
4.2294165,SMBus,Byte 0x01 ACK,,,,,,,,,,
4.22959633333333,SMBus,Byte 0x2D ACK,,,,,,,,,,
4.22978791666667,SMBus,Byte 0x00 ACK,,,,,,,,,,
4.22997583333333,SMBus,Byte 0x00 ACK,,,,,,,,,,
4.23015725,SMBus,Byte 0x02 ACK,,,,,,,,,,
4.2303365,SMBus,Byte 0x00 ACK,,,,,,,,,,
4.230486,SMBus,Byte 0xC4 ACK,,,,,,,,,,
4.23070741666667,SMBus,Byte 0x0E ACK,,,,,,,,,,
4.23085666666667,SMBus,Byte 0xC6 ACK,,,,,,,,,,
4.23109075,SMBus,Byte 0x0E ACK,,,,,,,,,,
4.23127,SMBus,Byte 0x07 ACK,,,,,,,,,,
4.23144883333333,SMBus,Byte 0x30 ACK,,,,,,,,,,
4.23159783333333,SMBus,PEC 0xAC OK,,,,,,,,,,
4.23346625,SMBus,Write address 0x0B ACK Protocol=Block write,,,,,,,,,,
4.23361641666667,SMBus,Command <error> 0x30,,,,,,,,,,
4.2339775,SMBus,Read address 0x0B ACK Protocol=Block write,,,,,,,,,,
4.234412,SMBus,Byte count 0x0A,,,,,,,,,,
4.23460491666667,SMBus,Byte 0x70 ACK,,,,,,,,,,
4.23475441666667,SMBus,Byte 0x9C ACK,,,,,,,,,,
4.23496275,SMBus,Byte 0x5B ACK,,,,,,,,,,
4.23514183333333,SMBus,Byte 0x19 ACK,,,,,,,,,,
4.23529116666667,SMBus,Byte 0x84 ACK,,,,,,,,,,
4.23549983333333,SMBus,Byte 0x4A ACK,,,,,,,,,,
4.235649,SMBus,Byte 0x97 ACK,,,,,,,,,,
4.23585675,SMBus,Byte 0x00 ACK,,,,,,,,,,
4.236036,SMBus,Byte 0x0B ACK,,,,,,,,,,
4.23621575,SMBus,Byte 0x00 ACK,,,,,,,,,,
4.23638691666667,SMBus,PEC 0x08 OK,,,,,,,,,,
4.23853975,SMBus,Write address 0x0B ACK Protocol=Read word,,,,,,,,,,
4.23868991666667,SMBus,Command ManufacturerAccess 0x00,,,,,,,,,,
4.23905091666667,SMBus,Read address 0x0B ACK Protocol=Read word,,,,,,,,,,
4.23931933333333,SMBus,Word 0x0210 ACK,,,,,,,,,,
4.23966175,SMBus,PEC 0x97 OK,,,,,,,,,,
4.24149183333333,SMBus,Write address 0x0B ACK Protocol=Read word,,,,,,,,,,
4.241642,SMBus,Command BatteryStatus 0x16,,,,,,,,,,
4.242003,SMBus,Read address 0x0B ACK Protocol=Read word,,,,,,,,,,
4.24227008333333,SMBus,BatteryStatus 0x900A OVER CHARGED ALARM=1, TERMINATE CHARGE ALARM=0, OVER TEMP ALARM=1, TERMINATE DISCHARGE ALARM=0, REMAINING CAPACITY ALARM=0, REMAINING TIME ALARM=0, INITIALIZED=0, DISCHARGING=0, FULLY CHARGED=0, FULLY DISCHARGED=0, ErrorCode=ReservedCommand
4.24263566666667,SMBus,PEC 0x09 OK,,,,,,,,,,
4.24450783333333,SMBus,Write address 0x0B ACK Protocol=Read word,,,,,,,,,,
4.244658,SMBus,Command ChargingCurrent 0x14,,,,,,,,,,
4.24503183333333,SMBus,Read address 0x0B ACK Protocol=Read word,,,,,,,,,,
4.24530016666667,SMBus,Word 0x0000 ACK,,,,,,,,,,
4.24564258333333,SMBus,PEC 0xF2 OK,,,,,,,,,,
4.24753658333333,SMBus,Write address 0x0B ACK Protocol=Read word,,,,,,,,,,
4.24768675,SMBus,Command ChargingVoltage 0x15,,,,,,,,,,
4.24806058333333,SMBus,Read address 0x0B ACK Protocol=Read word,,,,,,,,,,
4.24832891666667,SMBus,Word 0x0000 ACK,,,,,,,,,,
4.24868416666667,SMBus,PEC 0xE4 OK,,,,,,,,,,
4.25082091666667,SMBus,Write address 0x0B ACK Protocol=Read word,,,,,,,,,,
4.25097108333333,SMBus,Command Temperature 0x08,,,,,,,,,,
4.25133216666667,SMBus,Read address 0x0B ACK Protocol=Read word,,,,,,,,,,
4.25160058333333,SMBus,Word 0x890B ACK,,,,,,,,,,
4.25196491666667,SMBus,PEC 0x47 OK,,,,,,,,,,
4.25373466666667,SMBus,Write address 0x0B ACK Protocol=Read word,,,,,,,,,,
4.25388483333333,SMBus,Command <error> 0x3B,,,,,,,,,,
4.25425866666667,SMBus,Read address 0x0B ACK Protocol=Read word,,,,,,,,,,
4.25452666666667,SMBus,Word 0x880B ACK,,,,,,,,,,
4.2548695,SMBus,PEC 0xC1 OK,,,,,,,,,,
4.25676341666667,SMBus,Write address 0x0B ACK Protocol=Read word,,,,,,,,,,
4.25691358333333,SMBus,Command Voltage 0x09,,,,,,,,,,
4.25728741666667,SMBus,Read address 0x0B ACK Protocol=Read word,,,,,,,,,,
4.2575555,SMBus,Word 0x8C1D ACK,,,,,,,,,,
4.25793275,SMBus,PEC 0x72 OK,,,,,,,,,,
4.260035,SMBus,Write address 0x0B ACK Protocol=Read word,,,,,,,,,,
4.26018516666667,SMBus,Command RemainingCapacity 0x0F,,,,,,,,,,
4.26052066666667,SMBus,Read address 0x0B ACK Protocol=Read word,,,,,,,,,,
4.260789,SMBus,Word 0x0000 ACK,,,,,,,,,,
4.261153,SMBus,PEC 0x1F OK,,,,,,,,,,
4.26294875,SMBus,Write address 0x0B ACK Protocol=Read word,,,,,,,,,,
4.26309891666667,SMBus,Command FullChargeCapacity 0x10,,,,,,,,,,
4.26343441666667,SMBus,Read address 0x0B ACK Protocol=Read word,,,,,,,,,,
4.26370275,SMBus,Word 0x0000 ACK,,,,,,,,,,
4.26404525,SMBus,PEC 0xAA OK,,,,,,,,,,
4.2658625,SMBus,Write address 0x0B ACK Protocol=Read word,,,,,,,,,,
4.26601266666667,SMBus,Command Current 0x0A,,,,,,,,,,
4.2663865,SMBus,Read address 0x0B ACK Protocol=Read word,,,,,,,,,,
4.26665483333333,SMBus,Word 0x0000 ACK,,,,,,,,,,
4.26701883333333,SMBus,PEC 0x51 OK,,,,,,,,,,
4.26877625,SMBus,Write address 0x0B ACK Protocol=Read word,,,,,,,,,,
4.26892641666667,SMBus,Command RunTimeToEmpty 0x11,,,,,,,,,,
4.26928741666667,SMBus,Read address 0x0B ACK Protocol=Read word,,,,,,,,,,
4.269555,SMBus,Word 0xFFFF ACK,,,,,,,,,,
4.26991108333333,SMBus,PEC 0x98 OK,,,,,,,,,,
4.27171558333333,SMBus,Write address 0x0B ACK Protocol=Read word,,,,,,,,,,
4.27186575,SMBus,Command AverageCurrent 0x0B,,,,,,,,,,
4.27222675,SMBus,Read address 0x0B ACK Protocol=Read word,,,,,,,,,,
4.2725015,SMBus,Word 0x0000 ACK,,,,,,,,,,
4.27287175,SMBus,PEC 0x47 OK,,,,,,,,,,
4.27474433333333,SMBus,Write address 0x0B ACK Protocol=Read word,,,,,,,,,,
4.27486275,SMBus,Command Voltage 0x09,,,,,,,,,,
4.27526833333333,SMBus,Read address 0x0B ACK Protocol=Read word,,,,,,,,,,
4.2755365,SMBus,Word 0xFF7F NACK,,,,,,,,,,
4.27582758333333,SMBus,Bad PEC 0x5A should be 0xC6,,,,,,,,,,
4.27765808333333,SMBus,Write address 0x0B ACK Protocol=Read word,,,,,,,,,,
4.27780825,SMBus,Command AverageTimeToEmpty 0x12,,,,,,,,,,
4.278182,SMBus,Read address 0x0B ACK Protocol=Read word,,,,,,,,,,
4.27845016666667,SMBus,Word 0xFFFF ACK,,,,,,,,,,
4.27879283333333,SMBus,PEC 0xA2 OK,,,,,,,,,,
4.28094241666667,SMBus,Write address 0x0B ACK Protocol=Read word,,,,,,,,,,
4.28109258333333,SMBus,Command CycleCount 0x17,,,,,,,,,,
4.28146641666667,SMBus,Read address 0x0B ACK Protocol=Read word,,,,,,,,,,
4.28173475,SMBus,Word 0x1405 ACK,,,,,,,,,,
4.28207716666667,SMBus,PEC 0xD0 OK,,,,,,,,,,
4.28397116666667,SMBus,Write address 0x0B ACK Protocol=Read word,,,,,,,,,,
4.28412133333333,SMBus,Command MaxError 0x0C,,,,,,,,,,
4.28448233333333,SMBus,Read address 0x0B ACK Protocol=Read word,,,,,,,,,,
4.28475075,SMBus,Word 0x0000 ACK,,,,,,,,,,
4.28505991666667,SMBus,Bad PEC 0x12 should be 0x25,,,,,,,,,,
4.28688491666667,SMBus,Write address 0x0B ACK Protocol=Read word,,,,,,,,,,
4.28704783333333,SMBus,Command RelativeStateOfCharge 0x0D,,,,,,,,,,
4.28739608333333,SMBus,Read address 0x0B ACK Protocol=Read word,,,,,,,,,,
4.28767091666667,SMBus,Word 0x0000 ACK,,,,,,,,,,
4.28804141666667,SMBus,PEC 0x33 OK,,,,,,,,,,
4.29016925,SMBus,Write address 0x0B ACK Protocol=Block write,,,,,,,,,,
4.29031941666667,SMBus,Command ManufacturerData 0x23,,,,,,,,,,
4.29069325,SMBus,Read address 0x0B ACK Protocol=Block write,,,,,,,,,,
4.29101916666667,SMBus,Byte count 0x0E,,,,,,,,,,
4.29121858333333,SMBus,Byte 0x01 ACK,,,,,,,,,,
4.29139791666667,SMBus,Byte 0x2D ACK,,,,,,,,,,
4.29157666666667,SMBus,Byte 0x01 ACK,,,,,,,,,,
4.29175566666667,SMBus,Byte 0x2D ACK,,,,,,,,,,
4.29194708333333,SMBus,Byte 0x00 ACK,,,,,,,,,,
4.29212616666667,SMBus,Byte 0x00 ACK,,,,,,,,,,
4.29230425,SMBus,Byte 0x02 ACK,,,,,,,,,,
4.292483,SMBus,Byte 0x00 ACK,,,,,,,,,,
4.29263316666667,SMBus,Byte 0xC4 ACK,,,,,,,,,,
4.29284225,SMBus,Byte 0x0E ACK,,,,,,,,,,
4.29300375,SMBus,Byte 0xC6 ACK,,,,,,,,,,
4.29322508333333,SMBus,Byte 0x0E ACK,,,,,,,,,,
4.29340391666667,SMBus,Byte 0x07 ACK,,,,,,,,,,
4.29358316666667,SMBus,Byte 0x30 ACK,,,,,,,,,,
4.293745,SMBus,PEC 0xAC OK,,,,,,,,,,
4.29567725,SMBus,Write address 0x0B ACK Protocol=Block write,,,,,,,,,,
4.29582741666667,SMBus,Command <error> 0x30,,,,,,,,,,
4.29618841666667,SMBus,Read address 0x0B ACK Protocol=Block write,,,,,,,,,,
4.296623,SMBus,Byte count 0x0A,,,,,,,,,,
4.29681616666667,SMBus,Byte 0x70 ACK,,,,,,,,,,
4.29696541666667,SMBus,Byte 0x9C ACK,,,,,,,,,,
4.29717425,SMBus,Byte 0x5B ACK,,,,,,,,,,
4.29735283333333,SMBus,Byte 0x19 ACK,,,,,,,,,,
4.29750216666667,SMBus,Byte 0x84 ACK,,,,,,,,,,
4.29771066666667,SMBus,Byte 0x4A ACK,,,,,,,,,,
4.29786,SMBus,Byte 0x97 ACK,,,,,,,,,,
4.29806825,SMBus,Byte 0x00 ACK,,,,,,,,,,
4.29824708333333,SMBus,Byte 0x0B ACK,,,,,,,,,,
4.29842683333333,SMBus,Byte 0x00 ACK,,,,,,,,,,
4.29861083333333,SMBus,PEC 0x08 OK,,,,,,,,,,
