Time [s], Analyzer Name, Decoded Protocol Result
0.317642666666667,SMBus,Write address 0x0B ACK Protocol=Read word
0.317792833333333,SMBus,Command ManufacturerAccess 0x00
0.318000500000000,SMBus,Read address 0x0B ACK Protocol=Read word
0.318170583333333,SMBus,Word 0x1800 ACK
0.318521833333333,SMBus,PEC 0x32 OK
0.320032333333333,SMBus,Write address 0x0B ACK Protocol=Read word
0.320182500000000,SMBus,Command BatteryStatus 0x16
0.320428500000000,SMBus,Read address 0x0B ACK Protocol=Read word
0.320554750000000,SMBus,BatteryStatus 0xE0C0 OVER CHARGED ALARM=1, TERMINATE CHARGE ALARM=1, OVER TEMP ALARM=0, TERMINATE DISCHARGE ALARM=0, REMAINING CAPACITY ALARM=0, REMAINING TIME ALARM=0, INITIALIZED=1, DISCHARGING=1, FULLY CHARGED=0, FULLY DISCHARGED=0, ErrorCode=OK
0.320924250000000,SMBus,PEC 0xD3 OK
0.322588083333333,SMBus,Write address 0x0B ACK Protocol=Read word
0.322738250000000,SMBus,Command ChargingCurrent 0x14
0.322945916666667,SMBus,Read address 0x0B ACK Protocol=Read word
0.323146916666667,SMBus,Word 0x0000 ACK
0.323428916666667,SMBus,PEC 0xF2 OK
0.324977750000000,SMBus,Write address 0x0B ACK Protocol=Read word
0.325127916666667,SMBus,Command ChargingVoltage 0x15
0.325335583333333,SMBus,Read address 0x0B ACK Protocol=Read word
0.325537583333333,SMBus,Word 0x3831 ACK
0.325869916666667,SMBus,PEC 0x22 OK
0.327712416666667,SMBus,Write address 0x0B ACK Protocol=Read word
0.327862583333333,SMBus,Command Temperature 0x08
0.328070250000000,SMBus,Read address 0x0B ACK Protocol=Read word
0.328196500000000,SMBus,Word 0x920B ACK
0.328553250000000,SMBus,PEC 0x87 OK
0.330102083333333,SMBus,Write address 0x0B ACK Protocol=Read word
0.330252250000000,SMBus,Command <error> 0x3B
0.330459916666667,SMBus,Read address 0x0B ACK Protocol=Read word
0.330586500000000,SMBus,Word 0x920B ACK
0.331031750000000,SMBus,PEC 0x14 OK
0.332645083333333,SMBus,Write address 0x0B ACK Protocol=Read word
0.332795250000000,SMBus,Command Voltage 0x09
0.333002916666667,SMBus,Read address 0x0B ACK Protocol=Read word
0.333187333333333,SMBus,Word 0x5B30 ACK
0.333524416666667,SMBus,PEC 0x60 OK
0.335034750000000,SMBus,Write address 0x0B ACK Protocol=Read word
0.335184916666667,SMBus,Command RemainingCapacity 0x0F
0.335392583333333,SMBus,Read address 0x0B ACK Protocol=Read word
0.335518416666667,SMBus,Word 0x8015 ACK
0.335875583333333,SMBus,PEC 0xC2 OK
0.337769416666667,SMBus,Write address 0x0B ACK Protocol=Read word
0.337919583333333,SMBus,Command FullChargeCapacity 0x10
0.338127250000000,SMBus,Read address 0x0B ACK Protocol=Read word
0.338253916666667,SMBus,Word 0xA815 ACK
0.338673583333333,SMBus,PEC 0x71 OK
0.340184666666667,SMBus,Write address 0x0B ACK Protocol=Read word
0.340334833333333,SMBus,Command Current 0x0A
0.340542500000000,SMBus,Read address 0x0B ACK Protocol=Read word
0.340668583333333,SMBus,Word 0xE3FC ACK
0.341012666666667,SMBus,PEC 0xD7 OK
0.342676583333333,SMBus,Write address 0x0B ACK Protocol=Read word
0.342826666666667,SMBus,Command RunTimeToEmpty 0x11
0.343034333333333,SMBus,Read address 0x0B ACK Protocol=Read word
0.343230416666667,SMBus,Word 0x7F01 ACK
0.343517333333333,SMBus,PEC 0xDA OK
0.345066166666667,SMBus,Write address 0x0B ACK Protocol=Read word
0.345216333333333,SMBus,Command AverageCurrent 0x0B
0.345424000000000,SMBus,Read address 0x0B ACK Protocol=Read word
0.345549833333333,SMBus,Word 0xE8FC ACK
0.345945583333333,SMBus,PEC 0x56 OK
0.347813666666667,SMBus,Write address 0x0B ACK Protocol=Read word
0.347963833333333,SMBus,Command AverageTimeToFull 0x13
0.348171500000000,SMBus,Read address 0x0B ACK Protocol=Read word
0.348297666666667,SMBus,Word 0xFFFF ACK
0.348654500000000,SMBus,PEC 0xB4 OK
0.350177750000000,SMBus,Write address 0x0B ACK Protocol=Read word
0.350327916666667,SMBus,Command AverageTimeToEmpty 0x12
0.350535583333333,SMBus,Read address 0x0B ACK Protocol=Read word
0.350733750000000,SMBus,Word 0x7F01 ACK
0.351018583333333,SMBus,PEC 0xE0 OK
0.352669666666667,SMBus,Write address 0x0B ACK Protocol=Read word
0.352819833333333,SMBus,Command CycleCount 0x17
0.353027500000000,SMBus,Read address 0x0B ACK Protocol=Read word
0.353153500000000,SMBus,Word 0xF100 ACK
0.353510500000000,SMBus,PEC 0xC9 OK
0.355059333333333,SMBus,Write address 0x0B ACK Protocol=Read word
0.355209416666667,SMBus,Command MaxError 0x0C
0.355417083333333,SMBus,Read address 0x0B ACK Protocol=Read word
0.355604833333333,SMBus,Word 0x0800 ACK
0.355887333333333,SMBus,PEC 0x8D OK
0.357800416666667,SMBus,Write address 0x0B ACK Protocol=Read word
0.357969666666667,SMBus,Command RelativeStateOfCharge 0x0D
0.358177333333333,SMBus,Read address 0x0B ACK Protocol=Read word
0.358367250000000,SMBus,Word 0x6300 ACK
0.358647583333333,SMBus,PEC 0xF9 OK
0.360183666666667,SMBus,Write address 0x0B ACK Protocol=Block write
0.360333833333333,SMBus,Command ManufacturerData 0x23
0.360541500000000,SMBus,Read address 0x0B ACK Protocol=Block write
0.360751416666667,SMBus,Byte count 0x0C
0.360927583333333,SMBus,Byte 0x42 ACK
0.361106583333333,SMBus,Byte 0x0A ACK
0.361285583333333,SMBus,Byte 0x05 ACK
0.361464583333333,SMBus,Byte 0x12 ACK
0.361586750000000,SMBus,Byte 0x86 ACK
0.361822500000000,SMBus,Byte 0x0F ACK
0.361944500000000,SMBus,Byte 0x86 ACK
0.362180500000000,SMBus,Byte 0x0F ACK
0.362302333333333,SMBus,Byte 0x86 ACK
0.362537500000000,SMBus,Byte 0x0F ACK
0.362660166666667,SMBus,Byte 0x86 ACK
0.362895500000000,SMBus,Byte 0x0F ACK
0.363071666666667,SMBus,PEC 0x1B OK
0.364630666666667,SMBus,Write address 0x0B ACK Protocol=Block write
0.364819166666667,SMBus,Command <error> 0x30
0.365026833333333,SMBus,Read address 0x0B ACK Protocol=Block write
0.365238500000000,SMBus,Byte count 0x0A
0.365412750000000,SMBus,Byte 0x09 ACK
0.365535416666667,SMBus,Byte 0xEB ACK
0.365770750000000,SMBus,Byte 0x1A ACK
0.365893250000000,SMBus,Byte 0xC1 ACK
0.366128750000000,SMBus,Byte 0x09 ACK
0.366307750000000,SMBus,Byte 0x15 ACK
0.366499083333333,SMBus,Byte 0x00 ACK
0.366678000000000,SMBus,Byte 0x00 ACK
0.366857083333333,SMBus,Byte 0x00 ACK
0.367036000000000,SMBus,Byte 0x00 ACK
0.367212166666667,SMBus,PEC 0x5A OK
2.371081583333333,SMBus,Write address 0x0B ACK Protocol=Read word
2.371231750000000,SMBus,Command ManufacturerAccess 0x00
2.371439416666667,SMBus,Read address 0x0B ACK Protocol=Read word
2.371609666666667,SMBus,Word 0x1800 ACK
2.371973333333333,SMBus,PEC 0x32 OK
2.373484083333333,SMBus,Write address 0x0B ACK Protocol=Read word
2.373634166666667,SMBus,Command BatteryStatus 0x16
2.373841833333334,SMBus,Read address 0x0B ACK Protocol=Read word
2.373968083333333,SMBus,BatteryStatus 0xE0C0 OVER CHARGED ALARM=1, TERMINATE CHARGE ALARM=1, OVER TEMP ALARM=0, TERMINATE DISCHARGE ALARM=0, REMAINING CAPACITY ALARM=0, REMAINING TIME ALARM=0, INITIALIZED=1, DISCHARGING=1, FULLY CHARGED=0, FULLY DISCHARGED=0, ErrorCode=OK
2.374324833333334,SMBus,PEC 0xD3 OK
2.375886500000000,SMBus,Write address 0x0B ACK Protocol=Read word
2.376036666666667,SMBus,Command ChargingCurrent 0x14
2.376263500000000,SMBus,Read address 0x0B ACK Protocol=Read word
2.376483666666667,SMBus,Word 0x0000 ACK
2.376765666666667,SMBus,PEC 0xF2 OK
2.378327250000000,SMBus,Write address 0x0B ACK Protocol=Read word
2.378477416666667,SMBus,Command ChargingVoltage 0x15
2.378685083333334,SMBus,Read address 0x0B ACK Protocol=Read word
2.378887166666667,SMBus,Word 0x3831 ACK
2.379219333333333,SMBus,PEC 0x22 OK
2.380704166666667,SMBus,Read address 0x0B ACK
2.380817583333333,SMBus,Bad PEC 0x04 should be 0x65
2.381061916666666,SMBus,Read address 0x0B ACK
2.381188166666667,SMBus,Byte 0x92 ACK
2.381421000000000,SMBus,Byte 0x0B ACK
2.381532166666667,SMBus,Bad PEC 0x87 should be 0x4E
2.383106583333333,SMBus,Write address 0x0B ACK Protocol=Read word
2.383295083333334,SMBus,Command <error> 0x3B
2.383502666666667,SMBus,Read address 0x0B ACK Protocol=Read word
2.383628750000000,SMBus,Word 0x920B ACK
2.384062416666667,SMBus,PEC 0x14 OK
2.385624000000000,SMBus,Write address 0x0B ACK Protocol=Read word
2.385774166666667,SMBus,Command Voltage 0x09
2.385981833333333,SMBus,Read address 0x0B ACK Protocol=Read word
2.386166416666667,SMBus,Word 0x5930 ACK
2.386504416666666,SMBus,PEC 0x4A OK
2.388000916666666,SMBus,Write address 0x0B ACK Protocol=Read word
2.388151000000000,SMBus,Command RemainingCapacity 0x0F
2.388358666666667,SMBus,Read address 0x0B ACK Protocol=Read word
2.388485250000000,SMBus,Word 0x8015 ACK
2.388828916666667,SMBus,PEC 0xC2 OK
2.390377750000000,SMBus,Write address 0x0B ACK Protocol=Read word
2.390527916666667,SMBus,Command FullChargeCapacity 0x10
2.390754750000000,SMBus,Read address 0x0B ACK Protocol=Read word
2.390899916666667,SMBus,Word 0xA815 ACK
2.391308000000000,SMBus,PEC 0x71 OK
2.392831333333334,SMBus,Write address 0x0B ACK Protocol=Read word
2.392981416666667,SMBus,Command Current 0x0A
2.393189083333333,SMBus,Read address 0x0B ACK Protocol=Read word
2.393315333333333,SMBus,Word 0xEAFC ACK
2.393710000000000,SMBus,PEC 0x6A OK
2.395514833333333,SMBus,Write address 0x0B ACK Protocol=Read word
2.395665000000000,SMBus,Command RunTimeToEmpty 0x11
2.395872666666667,SMBus,Read address 0x0B ACK Protocol=Read word
2.395999166666666,SMBus,Word 0x8301 ACK
2.396406333333333,SMBus,PEC 0x32 OK
2.397930083333333,SMBus,Write address 0x0B ACK Protocol=Read word
2.398080250000000,SMBus,Command AverageCurrent 0x0B
2.398313416666667,SMBus,Read address 0x0B ACK Protocol=Read word
2.398439416666667,SMBus,Word 0xE9FC ACK
2.398835083333333,SMBus,PEC 0x43 OK
2.400332500000000,SMBus,Write address 0x0B ACK Protocol=Read word
2.400482666666667,SMBus,Command AverageTimeToFull 0x13
2.400690333333333,SMBus,Read address 0x0B ACK Protocol=Read word
2.400816583333333,SMBus,Word 0xFFFF ACK
2.401173333333333,SMBus,PEC 0xB4 OK
2.402728583333333,SMBus,Write address 0x0B ACK Protocol=Read word
2.402897916666667,SMBus,Command AverageTimeToEmpty 0x12
2.403105500000000,SMBus,Read address 0x0B ACK Protocol=Read word
2.403231916666666,SMBus,Word 0x8301 ACK
2.403639083333333,SMBus,PEC 0x08 OK
2.405508000000000,SMBus,Write address 0x0B ACK Protocol=Read word
2.405658083333333,SMBus,Command CycleCount 0x17
2.405865750000000,SMBus,Read address 0x0B ACK Protocol=Read word
2.405992000000000,SMBus,Word 0xF100 ACK
2.406361583333333,SMBus,PEC 0xC9 OK
2.407910416666667,SMBus,Write address 0x0B ACK Protocol=Read word
2.408060583333334,SMBus,Command MaxError 0x0C
2.408293750000000,SMBus,Read address 0x0B ACK Protocol=Read word
2.408481750000000,SMBus,Word 0x0800 ACK
2.408764000000000,SMBus,PEC 0x8D OK
2.410325583333333,SMBus,Write address 0x0B ACK Protocol=Read word
2.410475750000000,SMBus,Command RelativeStateOfCharge 0x0D
2.410683416666667,SMBus,Read address 0x0B ACK Protocol=Read word
2.410873416666667,SMBus,Word 0x6300 ACK
2.411153666666667,SMBus,PEC 0xF9 OK
2.412664166666667,SMBus,Write address 0x0B ACK Protocol=Block write
2.412814333333333,SMBus,Command ManufacturerData 0x23
2.413022000000000,SMBus,Read address 0x0B ACK Protocol=Block write
2.413232583333333,SMBus,Byte count 0x0C
2.413408666666667,SMBus,Byte 0x42 ACK
2.413586666666667,SMBus,Byte 0x0A ACK
2.413765666666666,SMBus,Byte 0x05 ACK
2.413944750000000,SMBus,Byte 0x12 ACK
2.414067250000000,SMBus,Byte 0x86 ACK
2.414302750000000,SMBus,Byte 0x0F ACK
2.414425083333333,SMBus,Byte 0x86 ACK
2.414660750000000,SMBus,Byte 0x0F ACK
2.414782833333333,SMBus,Byte 0x86 ACK
2.415018833333333,SMBus,Byte 0x0F ACK
2.415140666666667,SMBus,Byte 0x86 ACK
2.415375833333333,SMBus,Byte 0x0F ACK
2.415552000000000,SMBus,PEC 0x1B OK
2.417098416666667,SMBus,Write address 0x0B ACK Protocol=Block write
2.417248583333333,SMBus,Command <error> 0x30
2.417456250000000,SMBus,Read address 0x0B ACK Protocol=Block write
2.417667250000000,SMBus,Byte count 0x0A
2.417842416666667,SMBus,Byte 0x09 ACK
2.417964833333333,SMBus,Byte 0xEB ACK
2.418200333333334,SMBus,Byte 0x1A ACK
2.418322583333333,SMBus,Byte 0xC1 ACK
2.418558333333333,SMBus,Byte 0x09 ACK
2.418737333333334,SMBus,Byte 0x15 ACK
2.418928666666667,SMBus,Byte 0x00 ACK
2.419107666666667,SMBus,Byte 0x00 ACK
2.419286583333333,SMBus,Byte 0x00 ACK
2.419465583333333,SMBus,Byte 0x00 ACK
2.419641666666667,SMBus,PEC 0x5A OK
4.423518166666667,SMBus,Write address 0x0B ACK Protocol=Read word
4.423668333333334,SMBus,Command ManufacturerAccess 0x00
4.423876000000000,SMBus,Read address 0x0B ACK Protocol=Read word
4.424046166666667,SMBus,Word 0x1800 ACK
4.424397583333334,SMBus,PEC 0x32 OK
4.425920583333333,SMBus,Write address 0x0B ACK Protocol=Read word
4.426070750000000,SMBus,Command BatteryStatus 0x16
4.426278416666666,SMBus,Read address 0x0B ACK Protocol=Read word
4.426404333333333,SMBus,BatteryStatus 0xE0C0 OVER CHARGED ALARM=1, TERMINATE CHARGE ALARM=1, OVER TEMP ALARM=0, TERMINATE DISCHARGE ALARM=0, REMAINING CAPACITY ALARM=0, REMAINING TIME ALARM=0, INITIALIZED=1, DISCHARGING=1, FULLY CHARGED=0, FULLY DISCHARGED=0, ErrorCode=OK
4.426761416666666,SMBus,PEC 0xD3 OK
4.428323000000000,SMBus,Write address 0x0B ACK Protocol=Read word
4.428473166666667,SMBus,Command ChargingCurrent 0x14
4.428700000000000,SMBus,Read address 0x0B ACK Protocol=Read word
4.428919750000000,SMBus,Word 0x0000 ACK
4.429202166666666,SMBus,PEC 0xF2 OK
4.430751000000000,SMBus,Write address 0x0B ACK Protocol=Read word
4.430901166666667,SMBus,Command ChargingVoltage 0x15
4.431108833333333,SMBus,Read address 0x0B ACK Protocol=Read word
4.431310333333333,SMBus,Word 0x3831 ACK
4.431642583333334,SMBus,PEC 0x22 OK
4.433102333333333,SMBus,Write address 0x0B ACK Protocol=Read word
4.433252500000000,SMBus,Command Temperature 0x08
4.433460166666666,SMBus,Read address 0x0B ACK Protocol=Read word
4.433586333333333,SMBus,Word 0x920B ACK
4.433930333333334,SMBus,PEC 0x87 OK
4.435479166666667,SMBus,Write address 0x0B ACK Protocol=Read word
4.435629333333333,SMBus,Command <error> 0x3B
4.435837000000000,SMBus,Read address 0x0B ACK Protocol=Read word
4.435963750000000,SMBus,Word 0x920B ACK
4.436396583333333,SMBus,PEC 0x14 OK
4.437920000000000,SMBus,Write address 0x0B ACK Protocol=Read word
4.438070083333334,SMBus,Command Voltage 0x09
4.438277750000000,SMBus,Read address 0x0B ACK Protocol=Read word
4.438462500000000,SMBus,Word 0x5D30 ACK
4.438798666666667,SMBus,PEC 0x1E OK
4.440296833333333,SMBus,Write address 0x0B ACK Protocol=Read word
4.440447000000000,SMBus,Command RemainingCapacity 0x0F
4.440654666666667,SMBus,Read address 0x0B ACK Protocol=Read word
4.440848083333333,SMBus,Word 0x7F15 ACK
4.441188916666666,SMBus,PEC 0x15 OK
4.442993166666667,SMBus,Write address 0x0B ACK Protocol=Read word
4.443143333333333,SMBus,Command FullChargeCapacity 0x10
4.443351000000000,SMBus,Read address 0x0B ACK Protocol=Read word
4.443477000000000,SMBus,Word 0xA815 ACK
4.443885083333333,SMBus,PEC 0x71 OK
4.445408416666667,SMBus,Write address 0x0B ACK Protocol=Read word
4.445558583333334,SMBus,Command Current 0x0A
4.445766250000000,SMBus,Read address 0x0B ACK Protocol=Read word
4.445892416666666,SMBus,Word 0xF2FC ACK
4.446236416666666,SMBus,PEC 0x95 OK
4.447810833333333,SMBus,Write address 0x0B ACK Protocol=Read word
4.447961000000000,SMBus,Command RunTimeToEmpty 0x11
4.448187833333333,SMBus,Read address 0x0B ACK Protocol=Read word
4.448332916666667,SMBus,Word 0x8601 ACK
4.448741000000000,SMBus,PEC 0x73 OK
4.450264416666666,SMBus,Write address 0x0B ACK Protocol=Read word
4.450414500000000,SMBus,Command AverageCurrent 0x0B
4.450622166666666,SMBus,Read address 0x0B ACK Protocol=Read word
4.450748416666666,SMBus,Word 0xF0FC ACK
4.451092416666667,SMBus,PEC 0xA9 OK
4.452960750000000,SMBus,Write address 0x0B ACK Protocol=Read word
4.453110916666667,SMBus,Command AverageTimeToFull 0x13
4.453318583333333,SMBus,Read address 0x0B ACK Protocol=Read word
4.453444833333333,SMBus,Word 0xFFFF ACK
4.453814333333334,SMBus,PEC 0xB4 OK
4.455375916666667,SMBus,Write address 0x0B ACK Protocol=Read word
4.455526083333333,SMBus,Command AverageTimeToEmpty 0x12
4.455759333333333,SMBus,Read address 0x0B ACK Protocol=Read word
4.455886000000000,SMBus,Word 0x8601 ACK
4.456293166666667,SMBus,PEC 0x49 OK
4.457816750000000,SMBus,Write address 0x0B ACK Protocol=Read word
4.457966833333334,SMBus,Command CycleCount 0x17
4.458174500000000,SMBus,Read address 0x0B NACK Protocol=Read word
4.458287916666666,SMBus,Word 0x7800 NACK
4.458647333333333,SMBus,Bad PEC 0x64 should be 0xC2
4.460231916666666,SMBus,Write address 0x0B ACK Protocol=Read word
4.460382083333333,SMBus,Command MaxError 0x0C
4.460589750000000,SMBus,Read address 0x0B ACK Protocol=Read word
4.460777333333334,SMBus,Word 0x0800 ACK
4.461060000000000,SMBus,PEC 0x8D OK
4.462966583333333,SMBus,Write address 0x0B ACK Protocol=Read word
4.463116750000000,SMBus,Command RelativeStateOfCharge 0x0D
4.463324416666667,SMBus,Read address 0x0B ACK Protocol=Read word
4.463514500000000,SMBus,Word 0x6300 ACK
4.463807416666667,SMBus,PEC 0xF9 OK
4.465381833333334,SMBus,Write address 0x0B ACK Protocol=Block write
4.465532000000000,SMBus,Command ManufacturerData 0x23
4.465739666666667,SMBus,Read address 0x0B ACK Protocol=Block write
4.465949750000000,SMBus,Byte count 0x0C
4.466125916666667,SMBus,Byte 0x42 ACK
4.466304916666667,SMBus,Byte 0x0A ACK
4.466483833333333,SMBus,Byte 0x05 ACK
4.466662750000000,SMBus,Byte 0x12 ACK
4.466784916666667,SMBus,Byte 0x86 ACK
4.467020666666667,SMBus,Byte 0x0F ACK
4.467142750000000,SMBus,Byte 0x86 ACK
4.467378583333334,SMBus,Byte 0x0F ACK
4.467500500000000,SMBus,Byte 0x86 ACK
4.467736500000000,SMBus,Byte 0x0F ACK
4.467858333333333,SMBus,Byte 0x86 ACK
4.468093416666667,SMBus,Byte 0x0F ACK
4.468269583333333,SMBus,PEC 0x1B OK
4.469841666666666,SMBus,Write address 0x0B ACK Protocol=Block write
4.469991833333333,SMBus,Command <error> 0x30
4.470237833333333,SMBus,Read address 0x0B ACK Protocol=Block write
4.470449000000000,SMBus,Byte count 0x0A
4.470624166666667,SMBus,Byte 0x09 ACK
4.470746333333333,SMBus,Byte 0xEB ACK
4.470982083333333,SMBus,Byte 0x1A ACK
4.471104166666667,SMBus,Byte 0xC1 ACK
4.471352500000000,SMBus,Byte 0x09 ACK
4.471531500000000,SMBus,Byte 0x15 ACK
4.471710416666666,SMBus,Byte 0x00 ACK
4.471889416666667,SMBus,Byte 0x00 ACK
4.472068416666667,SMBus,Byte 0x00 ACK
4.472247416666667,SMBus,Byte 0x00 ACK
4.472422583333334,SMBus,PEC 0x5A OK
6.475955250000000,SMBus,Write address 0x0B ACK Protocol=Read word
6.476105416666667,SMBus,Command ManufacturerAccess 0x00
6.476313083333333,SMBus,Read address 0x0B ACK Protocol=Read word
6.476483166666666,SMBus,Word 0x1800 ACK
6.476846833333333,SMBus,PEC 0x32 OK
6.478370416666666,SMBus,Write address 0x0B ACK Protocol=Read word
6.478520583333333,SMBus,Command BatteryStatus 0x16
6.478728250000000,SMBus,Read address 0x0B ACK Protocol=Read word
6.478854833333333,SMBus,BatteryStatus 0xE0C0 OVER CHARGED ALARM=1, TERMINATE CHARGE ALARM=1, OVER TEMP ALARM=0, TERMINATE DISCHARGE ALARM=0, REMAINING CAPACITY ALARM=0, REMAINING TIME ALARM=0, INITIALIZED=1, DISCHARGING=1, FULLY CHARGED=0, FULLY DISCHARGED=0, ErrorCode=OK
6.479211250000000,SMBus,PEC 0xD3 OK
6.480798416666667,SMBus,Write address 0x0B ACK Protocol=Read word
6.480948583333333,SMBus,Command ChargingCurrent 0x14
6.481156250000000,SMBus,Read address 0x0B ACK Protocol=Read word
6.481357166666666,SMBus,Word 0x0000 ACK
6.481639250000000,SMBus,PEC 0xF2 OK
6.483213666666667,SMBus,Write address 0x0B ACK Protocol=Read word
6.483363833333334,SMBus,Command ChargingVoltage 0x15
6.483571500000000,SMBus,Read address 0x0B ACK Protocol=Read word
6.483773250000000,SMBus,Word 0x3831 ACK
6.484106416666667,SMBus,PEC 0x22 OK
6.485603333333334,SMBus,Write address 0x0B ACK Protocol=Read word
6.485753416666666,SMBus,Command Temperature 0x08
6.485961083333334,SMBus,Read address 0x0B ACK Protocol=Read word
6.486087166666667,SMBus,Word 0x920B ACK
6.486431333333333,SMBus,PEC 0x87 OK
6.487993000000000,SMBus,Write address 0x0B ACK Protocol=Read word
6.488143083333333,SMBus,Command <error> 0x3B
6.488350750000000,SMBus,Read address 0x0B ACK Protocol=Read word
6.488476666666666,SMBus,Word 0x920B ACK
6.488910500000000,SMBus,PEC 0x14 OK
6.490484833333333,SMBus,Write address 0x0B ACK Protocol=Read word
6.490635000000000,SMBus,Command Voltage 0x09
6.490842666666667,SMBus,Read address 0x0B ACK Protocol=Read word
6.491026916666667,SMBus,Word 0x5930 ACK
6.491363916666667,SMBus,PEC 0x4A OK
6.492887250000000,SMBus,Write address 0x0B ACK Protocol=Read word
6.493037416666667,SMBus,Command RemainingCapacity 0x0F
6.493245083333333,SMBus,Read address 0x0B ACK Protocol=Read word
6.493438583333333,SMBus,Word 0x7F15 ACK
6.493779416666666,SMBus,PEC 0x15 OK
6.495302500000000,SMBus,Write address 0x0B ACK Protocol=Read word
6.495452666666667,SMBus,Command FullChargeCapacity 0x10
6.495698666666667,SMBus,Read address 0x0B ACK Protocol=Read word
6.495824666666667,SMBus,Word 0xA815 ACK
6.496232750000000,SMBus,PEC 0x71 OK
6.497756083333333,SMBus,Write address 0x0B ACK Protocol=Read word
6.497906166666667,SMBus,Command Current 0x0A
6.498113833333333,SMBus,Read address 0x0B ACK Protocol=Read word
6.498239750000000,SMBus,Word 0xCEFC ACK
6.498584083333333,SMBus,PEC 0x90 OK
6.500439583333334,SMBus,Write address 0x0B ACK Protocol=Read word
6.500589750000000,SMBus,Command RunTimeToEmpty 0x11
6.500797416666667,SMBus,Read address 0x0B ACK Protocol=Read word
6.500993583333333,SMBus,Word 0x7501 ACK
6.501331583333333,SMBus,PEC 0x58 OK
6.502867583333333,SMBus,Write address 0x0B ACK Protocol=Read word
6.503017750000000,SMBus,Command AverageCurrent 0x0B
6.503225416666667,SMBus,Read address 0x0B ACK Protocol=Read word
6.503352083333334,SMBus,Word 0xF6FC ACK
6.503695666666666,SMBus,PEC 0xD7 OK
6.505270000000000,SMBus,Write address 0x0B ACK Protocol=Read word
6.505420166666666,SMBus,Command AverageTimeToFull 0x13
6.505627833333333,SMBus,Read address 0x0B ACK Protocol=Read word
6.505754083333334,SMBus,Word 0xFFFF ACK
6.506110833333334,SMBus,PEC 0xB4 OK
6.507698000000000,SMBus,Write address 0x0B ACK Protocol=Read word
6.507848166666666,SMBus,Command AverageTimeToEmpty 0x12
6.508055833333334,SMBus,Read address 0x0B ACK Protocol=Read word
6.508253500000000,SMBus,Word 0x7501 ACK
6.508589500000000,SMBus,PEC 0x62 OK
6.510407166666667,SMBus,Write address 0x0B ACK Protocol=Read word
6.510557333333334,SMBus,Command CycleCount 0x17
6.510765000000000,SMBus,Read address 0x0B ACK Protocol=Read word
6.510891666666667,SMBus,Word 0xF100 ACK
6.511260750000000,SMBus,PEC 0xC9 OK
6.512835166666667,SMBus,Write address 0x0B ACK Protocol=Read word
6.512985333333333,SMBus,Command MaxError 0x0C
6.513193000000000,SMBus,Read address 0x0B ACK Protocol=Read word
6.513380750000000,SMBus,Word 0x0800 ACK
6.513676000000000,SMBus,PEC 0x8D OK
6.515263166666666,SMBus,Write address 0x0B ACK Protocol=Read word
6.515413250000000,SMBus,Command RelativeStateOfCharge 0x0D
6.515620916666666,SMBus,Read address 0x0B ACK Protocol=Read word
6.515810833333333,SMBus,Word 0x6300 ACK
6.516091166666667,SMBus,PEC 0xF9 OK
6.517665583333334,SMBus,Write address 0x0B ACK Protocol=Block write
6.517815750000000,SMBus,Command ManufacturerData 0x23
6.518023416666667,SMBus,Read address 0x0B ACK Protocol=Block write
6.518233250000000,SMBus,Byte count 0x0C
6.518409333333333,SMBus,Byte 0x42 ACK
6.518588250000000,SMBus,Byte 0x0A ACK
6.518767166666667,SMBus,Byte 0x05 ACK
6.518946166666667,SMBus,Byte 0x12 ACK
6.519068666666667,SMBus,Byte 0x86 ACK
6.519304000000000,SMBus,Byte 0x0F ACK
6.519426500000000,SMBus,Byte 0x86 ACK
6.519661916666666,SMBus,Byte 0x0F ACK
6.519784250000000,SMBus,Byte 0x86 ACK
6.520019833333333,SMBus,Byte 0x0F ACK
6.520142083333333,SMBus,Byte 0x86 ACK
6.520377666666667,SMBus,Byte 0x0F ACK
6.520553833333333,SMBus,PEC 0x1B OK
6.522093500000000,SMBus,Write address 0x0B ACK Protocol=Block write
6.522262750000000,SMBus,Command <error> 0x30
6.522470416666667,SMBus,Read address 0x0B ACK Protocol=Block write
6.522682000000000,SMBus,Byte count 0x0A
6.522857083333333,SMBus,Byte 0x09 ACK
6.522979000000000,SMBus,Byte 0xEB ACK
6.523214083333333,SMBus,Byte 0x1A ACK
6.523336833333333,SMBus,Byte 0xC1 ACK
6.523571916666667,SMBus,Byte 0x09 ACK
6.523750833333334,SMBus,Byte 0x15 ACK
6.523929750000000,SMBus,Byte 0x00 ACK
6.524108750000000,SMBus,Byte 0x00 ACK
6.524287666666667,SMBus,Byte 0x00 ACK
6.524466666666667,SMBus,Byte 0x00 ACK
6.524642833333333,SMBus,PEC 0x5A OK
8.528403000000001,SMBus,Write address 0x0B ACK Protocol=Read word
8.528553166666667,SMBus,Command ManufacturerAccess 0x00
8.528760750000000,SMBus,Read address 0x0B ACK Protocol=Read word
8.528930833333334,SMBus,Word 0x1800 ACK
8.529294583333334,SMBus,PEC 0x32 OK
8.531252666666667,SMBus,Write address 0x0B ACK Protocol=Read word
8.531402833333333,SMBus,Command BatteryStatus 0x16
8.531636000000001,SMBus,Read address 0x0B ACK Protocol=Read word
8.531762166666667,SMBus,BatteryStatus 0xE0C0 OVER CHARGED ALARM=1, TERMINATE CHARGE ALARM=1, OVER TEMP ALARM=0, TERMINATE DISCHARGE ALARM=0, REMAINING CAPACITY ALARM=0, REMAINING TIME ALARM=0, INITIALIZED=1, DISCHARGING=1, FULLY CHARGED=0, FULLY DISCHARGED=0, ErrorCode=OK
8.532119083333333,SMBus,PEC 0xD3 OK
8.533693416666667,SMBus,Write address 0x0B ACK Protocol=Read word
8.533843583333333,SMBus,Command ChargingCurrent 0x14
8.534070416666667,SMBus,Read address 0x0B ACK Protocol=Read word
8.534290416666666,SMBus,Word 0x0000 ACK
8.534572583333333,SMBus,PEC 0xF2 OK
8.536147000000000,SMBus,Write address 0x0B ACK Protocol=Read word
8.536297166666667,SMBus,Command ChargingVoltage 0x15
8.536504833333334,SMBus,Read address 0x0B ACK Protocol=Read word
8.536706666666667,SMBus,Word 0x3831 ACK
8.537038916666667,SMBus,PEC 0x22 OK
8.538523833333333,SMBus,Write address 0x0B ACK Protocol=Read word
8.538674000000000,SMBus,Command Temperature 0x08
8.538881666666667,SMBus,Read address 0x0B ACK Protocol=Read word
8.539008166666667,SMBus,Word 0x920B ACK
8.539364666666666,SMBus,PEC 0x87 OK
8.540926333333333,SMBus,Write address 0x0B ACK Protocol=Read word
8.541076416666666,SMBus,Command <error> 0x3B
8.541284083333334,SMBus,Read address 0x0B ACK Protocol=Read word
8.541410166666667,SMBus,Word 0x920B ACK
8.541843916666666,SMBus,PEC 0x14 OK
8.543379833333333,SMBus,Write address 0x0B ACK Protocol=Read word
8.543530000000001,SMBus,Command Voltage 0x09
8.543737666666667,SMBus,Read address 0x0B ACK Protocol=Read word
8.543922416666666,SMBus,Word 0x5C30 ACK
8.544258583333333,SMBus,PEC 0x0B OK
8.546715166666667,SMBus,Write address 0x0B ACK Protocol=Read word
8.546865333333333,SMBus,Command RemainingCapacity 0x0F
8.547072999999999,SMBus,Read address 0x0B ACK Protocol=Read word
8.547266333333333,SMBus,Word 0x7E15 ACK
8.547607166666667,SMBus,PEC 0x00 OK
8.549117583333333,SMBus,Write address 0x0B ACK Protocol=Read word
8.549267750000000,SMBus,Command FullChargeCapacity 0x10
8.549475416666667,SMBus,Read address 0x0B ACK Protocol=Read word
8.549602000000000,SMBus,Word 0xA815 ACK
8.550009083333334,SMBus,PEC 0x71 OK
8.551558333333332,SMBus,Write address 0x0B ACK Protocol=Read word
8.551708500000000,SMBus,Command Current 0x0A
8.551916166666667,SMBus,Read address 0x0B ACK Protocol=Read word
8.552042083333333,SMBus,Word 0xFDFC ACK
8.552437749999999,SMBus,PEC 0x56 OK
8.553922416666667,SMBus,Write address 0x0B ACK Protocol=Read word
8.554072583333333,SMBus,Command RunTimeToEmpty 0x11
8.554280250000000,SMBus,Read address 0x0B ACK Protocol=Read word
8.554406333333333,SMBus,Word 0x8B01 ACK
8.554763250000001,SMBus,PEC 0x9A OK
8.556695500000000,SMBus,Write address 0x0B ACK Protocol=Read word
8.556845583333333,SMBus,Command AverageCurrent 0x0B
8.557053249999999,SMBus,Read address 0x0B ACK Protocol=Read word
8.557179583333333,SMBus,Word 0xE4FC ACK
8.557536250000000,SMBus,PEC 0xAA OK
8.559046750000000,SMBus,Write address 0x0B ACK Protocol=Read word
8.559196916666666,SMBus,Command AverageTimeToFull 0x13
8.559404583333333,SMBus,Read address 0x0B ACK Protocol=Read word
8.559531249999999,SMBus,Word 0xFFFF ACK
8.559887583333333,SMBus,PEC 0xB4 OK
8.561500333333333,SMBus,Write address 0x0B ACK Protocol=Read word
8.561650500000001,SMBus,Command AverageTimeToEmpty 0x12
8.561858166666667,SMBus,Read address 0x0B ACK Protocol=Read word
8.561984499999999,SMBus,Word 0x8B01 ACK
8.562341166666666,SMBus,PEC 0xA0 OK
8.563902750000000,SMBus,Write address 0x0B ACK Protocol=Read word
8.564052916666666,SMBus,Command CycleCount 0x17
8.564260583333333,SMBus,Read address 0x0B ACK Protocol=Read word
8.564386583333333,SMBus,Word 0xF100 ACK
8.564743583333334,SMBus,PEC 0xC9 OK
8.566675750000000,SMBus,Write address 0x0B ACK Protocol=Read word
8.566825916666666,SMBus,Command MaxError 0x0C
8.567033583333334,SMBus,Read address 0x0B ACK Protocol=Read word
8.567221000000000,SMBus,Word 0x0800 ACK
8.567503833333333,SMBus,PEC 0x8D OK
8.569027083333333,SMBus,Write address 0x0B ACK Protocol=Read word
8.569177249999999,SMBus,Command RelativeStateOfCharge 0x0D
8.569384916666667,SMBus,Read address 0x0B ACK Protocol=Read word
8.569575499999999,SMBus,Word 0x6300 ACK
8.569855166666667,SMBus,PEC 0xF9 OK
8.571480666666666,SMBus,Write address 0x0B ACK Protocol=Block write
8.571630833333334,SMBus,Command ManufacturerData 0x23
8.571838500000000,SMBus,Read address 0x0B ACK Protocol=Block write
8.572048833333334,SMBus,Byte count 0x0C
8.572224833333333,SMBus,Byte 0x42 ACK
8.572403833333333,SMBus,Byte 0x0A ACK
8.572582750000000,SMBus,Byte 0x05 ACK
8.572761750000000,SMBus,Byte 0x12 ACK
8.572883750000001,SMBus,Byte 0x86 ACK
8.573119750000000,SMBus,Byte 0x0F ACK
8.573241583333333,SMBus,Byte 0x86 ACK
8.573476666666666,SMBus,Byte 0x0F ACK
8.573599333333334,SMBus,Byte 0x86 ACK
8.573834583333333,SMBus,Byte 0x0F ACK
8.573957166666666,SMBus,Byte 0x86 ACK
8.574192583333334,SMBus,Byte 0x0F ACK
8.574368666666667,SMBus,PEC 0x1B OK
8.575902166666667,SMBus,Write address 0x0B ACK Protocol=Block write
8.576052333333333,SMBus,Command <error> 0x30
8.576260000000000,SMBus,Read address 0x0B ACK Protocol=Block write
8.576471666666666,SMBus,Byte count 0x0A
8.576645833333334,SMBus,Byte 0x09 ACK
8.576768500000000,SMBus,Byte 0xEB ACK
8.577003833333332,SMBus,Byte 0x1A ACK
8.577126333333334,SMBus,Byte 0xC1 ACK
8.577361833333333,SMBus,Byte 0x09 ACK
8.577540833333334,SMBus,Byte 0x15 ACK
8.577719750000000,SMBus,Byte 0x00 ACK
8.577898666666666,SMBus,Byte 0x00 ACK
8.578077666666667,SMBus,Byte 0x00 ACK
8.578256666666666,SMBus,Byte 0x00 ACK
8.578432833333334,SMBus,PEC 0x5A OK
10.581824916666667,SMBus,Write address 0x0B ACK Protocol=Read word
10.581975083333333,SMBus,Command ManufacturerAccess 0x00
10.582182749999999,SMBus,Read address 0x0B ACK Protocol=Read word
10.582353500000000,SMBus,Word 0x1800 ACK
10.582703833333333,SMBus,PEC 0x32 OK
10.584598000000000,SMBus,Write address 0x0B ACK Protocol=Read word
10.584748083333333,SMBus,Command BatteryStatus 0x16
10.584955750000001,SMBus,Read address 0x0B ACK Protocol=Read word
10.585082333333334,SMBus,BatteryStatus 0xE0C0 OVER CHARGED ALARM=1, TERMINATE CHARGE ALARM=1, OVER TEMP ALARM=0, TERMINATE DISCHARGE ALARM=0, REMAINING CAPACITY ALARM=0, REMAINING TIME ALARM=0, INITIALIZED=1, DISCHARGING=1, FULLY CHARGED=0, FULLY DISCHARGED=0, ErrorCode=OK
10.585438750000000,SMBus,PEC 0xD3 OK
10.586949250000000,SMBus,Write address 0x0B ACK Protocol=Read word
10.587099416666666,SMBus,Command ChargingCurrent 0x14
10.587307083333334,SMBus,Read address 0x0B ACK Protocol=Read word
10.587507750000000,SMBus,Word 0x0000 ACK
10.587802916666666,SMBus,PEC 0xF2 OK
10.589453916666667,SMBus,Write address 0x0B ACK Protocol=Read word
10.589604083333333,SMBus,Command ChargingVoltage 0x15
10.589811750000001,SMBus,Read address 0x0B ACK Protocol=Read word
10.590014083333333,SMBus,Word 0x3831 ACK
10.590345500000000,SMBus,PEC 0x22 OK
10.591856416666667,SMBus,Write address 0x0B ACK Protocol=Read word
10.592006500000000,SMBus,Command Temperature 0x08
10.592214166666666,SMBus,Read address 0x0B ACK Protocol=Read word
10.592340333333333,SMBus,Word 0x920B ACK
10.592684416666666,SMBus,PEC 0x87 OK
10.594629416666667,SMBus,Write address 0x0B ACK Protocol=Read word
10.594779583333333,SMBus,Command <error> 0x3B
10.595006416666667,SMBus,Read address 0x0B ACK Protocol=Read word
10.595152000000001,SMBus,Word 0x920B ACK
10.595584833333334,SMBus,PEC 0x14 OK
10.597108499999999,SMBus,Write address 0x0B ACK Protocol=Read word
10.597258666666667,SMBus,Command Voltage 0x09
10.597466333333333,SMBus,Read address 0x0B ACK Protocol=Read word
10.597650833333333,SMBus,Word 0x5C30 ACK
10.597987916666666,SMBus,PEC 0x0B OK
10.599587583333333,SMBus,Write address 0x0B ACK Protocol=Read word
10.599737749999999,SMBus,Command RemainingCapacity 0x0F
10.599945416666667,SMBus,Read address 0x0B ACK Protocol=Read word
10.600138500000000,SMBus,Word 0x7E15 ACK
10.600492583333333,SMBus,PEC 0x00 OK
10.601996416666667,SMBus,Write address 0x0B ACK Protocol=Read word
10.602165749999999,SMBus,Command FullChargeCapacity 0x10
10.602373416666667,SMBus,Read address 0x0B ACK Protocol=Read word
10.602499999999999,SMBus,Word 0xA815 ACK
10.602907083333333,SMBus,PEC 0x71 OK
10.604750333333334,SMBus,Write address 0x0B ACK Protocol=Read word
10.604900416666666,SMBus,Command Current 0x0A
10.605108083333333,SMBus,Read address 0x0B ACK Protocol=Read word
10.605234250000001,SMBus,Word 0xF4FC ACK
10.605578333333334,SMBus,PEC 0xEB OK
10.607139916666666,SMBus,Write address 0x0B ACK Protocol=Read word
10.607290083333334,SMBus,Command RunTimeToEmpty 0x11
10.607497750000000,SMBus,Read address 0x0B ACK Protocol=Read word
10.607623833333333,SMBus,Word 0x8701 ACK
10.608031916666667,SMBus,PEC 0x66 OK
10.609619083333333,SMBus,Write address 0x0B ACK Protocol=Read word
10.609769249999999,SMBus,Command AverageCurrent 0x0B
10.609976833333333,SMBus,Read address 0x0B ACK Protocol=Read word
10.610103499999999,SMBus,Word 0xF7FC ACK
10.610447083333334,SMBus,PEC 0xC2 OK
10.612034250000001,SMBus,Write address 0x0B ACK Protocol=Read word
10.612184416666667,SMBus,Command AverageTimeToFull 0x13
10.612392083333333,SMBus,Read address 0x0B ACK Protocol=Read word
10.612518750000000,SMBus,Word 0xFFFF ACK
10.612875083333334,SMBus,PEC 0xB4 OK
10.614781750000001,SMBus,Write address 0x0B ACK Protocol=Read word
10.614931916666666,SMBus,Command AverageTimeToEmpty 0x12
10.615139583333333,SMBus,Read address 0x0B ACK Protocol=Read word
10.615266000000000,SMBus,Word 0x8701 ACK
10.615673166666667,SMBus,PEC 0x5C OK
10.617171416666666,SMBus,Write address 0x0B ACK Protocol=Read word
10.617321499999999,SMBus,Command CycleCount 0x17
10.617567583333333,SMBus,Read address 0x0B ACK Protocol=Read word
10.617694000000000,SMBus,Word 0xF100 ACK
10.618050583333334,SMBus,PEC 0xC9 OK
10.619714416666667,SMBus,Write address 0x0B ACK Protocol=Read word
10.619864500000000,SMBus,Command MaxError 0x0C
10.620072166666667,SMBus,Read address 0x0B ACK Protocol=Read word
10.620259500000000,SMBus,Word 0x0800 ACK
10.620542416666666,SMBus,PEC 0x8D OK
10.622104000000000,SMBus,Write address 0x0B ACK Protocol=Read word
10.622254166666666,SMBus,Command RelativeStateOfCharge 0x0D
10.622461833333332,SMBus,Read address 0x0B ACK Protocol=Read word
10.622651916666667,SMBus,Word 0x6300 ACK
10.622932083333334,SMBus,PEC 0xF9 OK
10.624838750000000,SMBus,Write address 0x0B ACK Protocol=Block write
10.624988916666666,SMBus,Command ManufacturerData 0x23
10.625196583333333,SMBus,Read address 0x0B ACK Protocol=Block write
10.625406999999999,SMBus,Byte count 0x0C
10.625583083333334,SMBus,Byte 0x42 ACK
10.625762083333333,SMBus,Byte 0x0A ACK
10.625941083333334,SMBus,Byte 0x05 ACK
10.626119166666667,SMBus,Byte 0x12 ACK
10.626241833333333,SMBus,Byte 0x86 ACK
10.626477166666668,SMBus,Byte 0x0F ACK
10.626612416666667,SMBus,Byte 0x86 ACK
10.626847500000000,SMBus,Byte 0x0F ACK
10.626970249999999,SMBus,Byte 0x86 ACK
10.627205583333334,SMBus,Byte 0x0F ACK
10.627328000000000,SMBus,Byte 0x86 ACK
10.627563583333334,SMBus,Byte 0x0F ACK
10.627739666666667,SMBus,PEC 0x1B OK
10.629388000000001,SMBus,Write address 0x0B ACK Protocol=Block write
10.629538166666666,SMBus,Command <error> 0x30
10.629745833333333,SMBus,Read address 0x0B ACK Protocol=Block write
10.629957083333334,SMBus,Byte count 0x0A
10.630132333333334,SMBus,Byte 0x09 ACK
10.630254416666666,SMBus,Byte 0xEB ACK
10.630490249999999,SMBus,Byte 0x1A ACK
10.630612166666667,SMBus,Byte 0xC1 ACK
10.630847250000000,SMBus,Byte 0x09 ACK
10.631026250000000,SMBus,Byte 0x15 ACK
10.631205166666666,SMBus,Byte 0x00 ACK
10.631384166666667,SMBus,Byte 0x00 ACK
10.631563166666666,SMBus,Byte 0x00 ACK
10.631742166666667,SMBus,Byte 0x00 ACK
10.631918333333333,SMBus,PEC 0x5A OK
12.635258916666666,SMBus,Write address 0x0B ACK Protocol=Read word
12.635409083333334,SMBus,Command ManufacturerAccess 0x00
12.635616750000001,SMBus,Read address 0x0B ACK Protocol=Read word
12.635787583333334,SMBus,Word 0x1800 ACK
12.636150250000000,SMBus,PEC 0x32 OK
12.637648583333334,SMBus,Write address 0x0B ACK Protocol=Read word
12.637798750000000,SMBus,Command BatteryStatus 0x16
12.638044750000001,SMBus,Read address 0x0B ACK Protocol=Read word
12.638171166666666,SMBus,BatteryStatus 0xE0C0 OVER CHARGED ALARM=1, TERMINATE CHARGE ALARM=1, OVER TEMP ALARM=0, TERMINATE DISCHARGE ALARM=0, REMAINING CAPACITY ALARM=0, REMAINING TIME ALARM=0, INITIALIZED=1, DISCHARGING=1, FULLY CHARGED=0, FULLY DISCHARGED=0, ErrorCode=OK
12.638527750000000,SMBus,PEC 0xD3 OK
12.640102166666667,SMBus,Write address 0x0B ACK Protocol=Read word
12.640252250000000,SMBus,Command ChargingCurrent 0x14
12.640459916666666,SMBus,Read address 0x0B ACK Protocol=Read word
12.640660583333334,SMBus,Word 0x0000 ACK
12.640955750000000,SMBus,PEC 0xF2 OK
12.642772916666667,SMBus,Write address 0x0B ACK Protocol=Read word
12.642961416666667,SMBus,Command ChargingVoltage 0x15
12.643169083333333,SMBus,Read address 0x0B ACK Protocol=Read word
12.643371083333333,SMBus,Word 0x3831 ACK
12.643703333333333,SMBus,PEC 0x22 OK
12.645226500000000,SMBus,Write address 0x0B ACK Protocol=Read word
12.645376583333332,SMBus,Command Temperature 0x08
12.645584250000001,SMBus,Read address 0x0B ACK Protocol=Read word
12.645710583333333,SMBus,Word 0x920B ACK
12.646080083333333,SMBus,PEC 0x87 OK
12.647641666666667,SMBus,Write address 0x0B ACK Protocol=Read word
12.647791833333333,SMBus,Command <error> 0x3B
12.648037833333333,SMBus,Read address 0x0B ACK Protocol=Read word
12.648163833333333,SMBus,Word 0x920B ACK
12.648597583333334,SMBus,PEC 0x14 OK
12.650095250000000,SMBus,Write address 0x0B ACK Protocol=Read word
12.650245416666667,SMBus,Command Voltage 0x09
12.650453083333334,SMBus,Read address 0x0B ACK Protocol=Read word
12.650637833333333,SMBus,Word 0x5C30 ACK
12.650973916666667,SMBus,PEC 0x0B OK
12.652740500000000,SMBus,Write address 0x0B ACK Protocol=Read word
12.652890583333333,SMBus,Command RemainingCapacity 0x0F
12.653098249999999,SMBus,Read address 0x0B ACK Protocol=Read word
12.653291250000001,SMBus,Word 0x7E15 ACK
12.653632166666666,SMBus,PEC 0x00 OK
12.655142916666666,SMBus,Write address 0x0B ACK Protocol=Read word
12.655293083333333,SMBus,Command FullChargeCapacity 0x10
12.655500666666667,SMBus,Read address 0x0B ACK Protocol=Read word
12.655627333333333,SMBus,Word 0xA815 ACK
12.656034416666667,SMBus,PEC 0x71 OK
12.657532583333333,SMBus,Write address 0x0B ACK Protocol=Read word
12.657682666666666,SMBus,Command Current 0x0A
12.657890333333333,SMBus,Read address 0x0B ACK Protocol=Read word
12.658016249999999,SMBus,Word 0xEEFC ACK
12.658411916666667,SMBus,PEC 0x3E OK
12.659883916666667,SMBus,Write address 0x0B ACK Protocol=Read word
12.660034000000000,SMBus,Command RunTimeToEmpty 0x11
12.660241666666666,SMBus,Read address 0x0B ACK Protocol=Read word
12.660367916666667,SMBus,Word 0x8401 ACK
12.660776000000000,SMBus,PEC 0x59 OK
12.662656916666666,SMBus,Write address 0x0B ACK Protocol=Read word
12.662807083333334,SMBus,Command AverageCurrent 0x0B
12.663014750000000,SMBus,Read address 0x0B ACK Protocol=Read word
12.663141333333334,SMBus,Word 0xEFFC ACK
12.663536083333334,SMBus,PEC 0x3D OK
12.665059333333334,SMBus,Write address 0x0B ACK Protocol=Read word
12.665209500000000,SMBus,Command AverageTimeToFull 0x13
12.665417166666666,SMBus,Read address 0x0B ACK Protocol=Read word
12.665543416666667,SMBus,Word 0xFFFF ACK
12.665900166666667,SMBus,PEC 0xB4 OK
12.667474500000001,SMBus,Write address 0x0B ACK Protocol=Read word
12.667624666666667,SMBus,Command AverageTimeToEmpty 0x12
12.667832333333333,SMBus,Read address 0x0B ACK Protocol=Read word
12.667958666666667,SMBus,Word 0x8401 ACK
12.668366750000001,SMBus,PEC 0x63 OK
12.669825833333332,SMBus,Write address 0x0B ACK Protocol=Read word
12.669976000000000,SMBus,Command CycleCount 0x17
12.670183666666667,SMBus,Read address 0x0B ACK Protocol=Read word
12.670310166666667,SMBus,Word 0xF100 ACK
12.670666666666667,SMBus,PEC 0xC9 OK
12.672598916666667,SMBus,Write address 0x0B ACK Protocol=Read word
12.672749000000000,SMBus,Command MaxError 0x0C
12.672995000000000,SMBus,Read address 0x0B ACK Protocol=Read word
12.673182750000000,SMBus,Word 0x0800 ACK
12.673465250000000,SMBus,PEC 0x8D OK
12.675026833333334,SMBus,Write address 0x0B ACK Protocol=Read word
12.675177000000000,SMBus,Command RelativeStateOfCharge 0x0D
12.675403833333334,SMBus,Read address 0x0B ACK Protocol=Read word
12.675613333333333,SMBus,Word 0x6300 ACK
12.675893250000000,SMBus,PEC 0xF9 OK
12.677454833333334,SMBus,Write address 0x0B ACK Protocol=Block write
12.677605000000000,SMBus,Command ManufacturerData 0x23
12.677812666666666,SMBus,Read address 0x0B ACK Protocol=Block write
12.678023000000000,SMBus,Byte count 0x0C
12.678199083333332,SMBus,Byte 0x42 ACK
12.678378083333333,SMBus,Byte 0x0A ACK
12.678557083333333,SMBus,Byte 0x05 ACK
12.678736083333334,SMBus,Byte 0x12 ACK
12.678857916666667,SMBus,Byte 0x86 ACK
12.679106416666666,SMBus,Byte 0x0F ACK
12.679228500000001,SMBus,Byte 0x86 ACK
12.679464416666667,SMBus,Byte 0x0F ACK
12.679586333333333,SMBus,Byte 0x86 ACK
12.679821583333334,SMBus,Byte 0x0F ACK
12.679944166666667,SMBus,Byte 0x86 ACK
12.680179499999999,SMBus,Byte 0x0F ACK
12.680355583333334,SMBus,PEC 0x1B OK
12.682259750000000,SMBus,Write address 0x0B ACK Protocol=Block write
12.682409916666666,SMBus,Command <error> 0x30
12.682617583333334,SMBus,Read address 0x0B ACK Protocol=Block write
12.682829083333333,SMBus,Byte count 0x0A
12.683004166666667,SMBus,Byte 0x09 ACK
12.683126083333333,SMBus,Byte 0xEB ACK
12.683361250000001,SMBus,Byte 0x1A ACK
12.683483916666667,SMBus,Byte 0xC1 ACK
12.683719249999999,SMBus,Byte 0x09 ACK
12.683898333333333,SMBus,Byte 0x15 ACK
12.684077250000000,SMBus,Byte 0x00 ACK
12.684256250000001,SMBus,Byte 0x00 ACK
12.684435250000000,SMBus,Byte 0x00 ACK
12.684614249999999,SMBus,Byte 0x00 ACK
12.684790333333334,SMBus,PEC 0x5A OK
14.689034333333334,SMBus,Write address 0x0B ACK Protocol=Read word
14.689184500000000,SMBus,Command ManufacturerAccess 0x00
14.689392166666666,SMBus,Read address 0x0B ACK Protocol=Read word
14.689562416666666,SMBus,Word 0x1800 ACK
14.689900333333334,SMBus,PEC 0x32 OK
14.691385666666667,SMBus,Write address 0x0B ACK Protocol=Read word
14.691535833333333,SMBus,Command BatteryStatus 0x16
14.691743499999999,SMBus,Read address 0x0B ACK Protocol=Read word
14.691870000000000,SMBus,BatteryStatus 0xE0C0 OVER CHARGED ALARM=1, TERMINATE CHARGE ALARM=1, OVER TEMP ALARM=0, TERMINATE DISCHARGE ALARM=0, REMAINING CAPACITY ALARM=0, REMAINING TIME ALARM=0, INITIALIZED=1, DISCHARGING=1, FULLY CHARGED=0, FULLY DISCHARGED=0, ErrorCode=OK
14.692226500000000,SMBus,PEC 0xD3 OK
14.693871166666666,SMBus,Write address 0x0B ACK Protocol=Read word
14.694040500000000,SMBus,Command ChargingCurrent 0x14
14.694248166666666,SMBus,Read address 0x0B ACK Protocol=Read word
14.694449250000000,SMBus,Word 0x0000 ACK
14.694731166666667,SMBus,PEC 0xF2 OK
14.696267166666667,SMBus,Write address 0x0B ACK Protocol=Read word
14.696417333333333,SMBus,Command ChargingVoltage 0x15
14.696624999999999,SMBus,Read address 0x0B ACK Protocol=Read word
14.696827166666667,SMBus,Word 0x3831 ACK
14.697159333333333,SMBus,PEC 0x22 OK
14.699040249999999,SMBus,Write address 0x0B ACK Protocol=Read word
14.699190333333334,SMBus,Command Temperature 0x08
14.699398000000000,SMBus,Read address 0x0B ACK Protocol=Read word
14.699524166666667,SMBus,Word 0x920B ACK
14.699868250000000,SMBus,PEC 0x87 OK
14.701429916666667,SMBus,Write address 0x0B ACK Protocol=Read word
14.701580000000000,SMBus,Command <error> 0x3B
14.701787666666666,SMBus,Read address 0x0B ACK Protocol=Read word
14.701913583333333,SMBus,Word 0x920B ACK
14.702347250000001,SMBus,PEC 0x14 OK
14.703947333333334,SMBus,Write address 0x0B ACK Protocol=Read word
14.704097500000000,SMBus,Command Voltage 0x09
14.704305166666666,SMBus,Read address 0x0B ACK Protocol=Read word
14.704490000000000,SMBus,Word 0x5B30 ACK
14.704826000000001,SMBus,PEC 0x60 OK
14.706298666666667,SMBus,Write address 0x0B ACK Protocol=Read word
14.706448750000000,SMBus,Command RemainingCapacity 0x0F
14.706656416666666,SMBus,Read address 0x0B ACK Protocol=Read word
14.706849999999999,SMBus,Word 0x7D15 ACK
14.707189916666668,SMBus,PEC 0x3F OK
14.709071666666667,SMBus,Write address 0x0B ACK Protocol=Read word
14.709221833333334,SMBus,Command FullChargeCapacity 0x10
14.709429500000001,SMBus,Read address 0x0B ACK Protocol=Read word
14.709555916666666,SMBus,Word 0xA815 ACK
14.709963083333333,SMBus,PEC 0x71 OK
14.711461333333334,SMBus,Write address 0x0B ACK Protocol=Read word
14.711611500000000,SMBus,Command Current 0x0A
14.711819083333333,SMBus,Read address 0x0B ACK Protocol=Read word
14.711945583333334,SMBus,Word 0xE7FC ACK
14.712289333333333,SMBus,PEC 0x83 OK
14.713940416666667,SMBus,Write address 0x0B ACK Protocol=Read word
14.714090583333334,SMBus,Command RunTimeToEmpty 0x11
14.714298250000001,SMBus,Read address 0x0B ACK Protocol=Read word
14.714424416666667,SMBus,Word 0x8101 ACK
14.714832416666667,SMBus,PEC 0x18 OK
14.716304500000000,SMBus,Write address 0x0B ACK Protocol=Read word
14.716454666666667,SMBus,Command AverageCurrent 0x0B
14.716662333333334,SMBus,Read address 0x0B ACK Protocol=Read word
14.716789083333333,SMBus,Word 0xE9FC ACK
14.717183750000000,SMBus,PEC 0x43 OK
14.719077583333334,SMBus,Write address 0x0B ACK Protocol=Read word
14.719227666666667,SMBus,Command AverageTimeToFull 0x13
14.719435333333333,SMBus,Read address 0x0B ACK Protocol=Read word
14.719562083333333,SMBus,Word 0xFFFF ACK
14.719918333333334,SMBus,PEC 0xB4 OK
14.721467166666667,SMBus,Write address 0x0B ACK Protocol=Read word
14.721617333333333,SMBus,Command AverageTimeToEmpty 0x12
14.721844166666667,SMBus,Read address 0x0B ACK Protocol=Read word
14.721989333333333,SMBus,Word 0x8101 ACK
14.722397333333333,SMBus,PEC 0x22 OK
14.723984666666666,SMBus,Write address 0x0B ACK Protocol=Read word
14.724134749999999,SMBus,Command CycleCount 0x17
14.724342416666667,SMBus,Read address 0x0B ACK Protocol=Read word
14.724469083333334,SMBus,Word 0xF100 ACK
14.724825416666667,SMBus,PEC 0xC9 OK
14.726335916666667,SMBus,Write address 0x0B ACK Protocol=Read word
14.726486083333333,SMBus,Command MaxError 0x0C
14.726693750000001,SMBus,Read address 0x0B ACK Protocol=Read word
14.726881583333334,SMBus,Word 0x0800 ACK
14.727164000000000,SMBus,PEC 0x8D OK
14.729070666666667,SMBus,Write address 0x0B ACK Protocol=Read word
14.729220750000000,SMBus,Command RelativeStateOfCharge 0x0D
14.729428416666666,SMBus,Read address 0x0B ACK Protocol=Read word
14.729619083333333,SMBus,Word 0x6300 ACK
14.729898666666667,SMBus,PEC 0xF9 OK
14.731473083333332,SMBus,Write address 0x0B ACK Protocol=Block write
14.731623250000000,SMBus,Command ManufacturerData 0x23
14.731830916666667,SMBus,Read address 0x0B ACK Protocol=Block write
14.732041583333332,SMBus,Byte count 0x0C
14.732216749999999,SMBus,Byte 0x42 ACK
14.732395750000000,SMBus,Byte 0x0A ACK
14.732574749999999,SMBus,Byte 0x05 ACK
14.732753750000001,SMBus,Byte 0x12 ACK
14.732876166666667,SMBus,Byte 0x86 ACK
14.733111750000001,SMBus,Byte 0x0F ACK
14.733233999999999,SMBus,Byte 0x86 ACK
14.733469749999999,SMBus,Byte 0x0F ACK
14.733591750000000,SMBus,Byte 0x86 ACK
14.733827750000000,SMBus,Byte 0x0F ACK
14.733949583333333,SMBus,Byte 0x86 ACK
14.734184750000001,SMBus,Byte 0x0F ACK
14.734360833333334,SMBus,PEC 0x1B OK
14.735894583333334,SMBus,Write address 0x0B ACK Protocol=Block write
14.736044750000000,SMBus,Command <error> 0x30
14.736252416666666,SMBus,Read address 0x0B ACK Protocol=Block write
14.736463499999999,SMBus,Byte count 0x0A
14.736638666666666,SMBus,Byte 0x09 ACK
14.736760916666666,SMBus,Byte 0xEB ACK
14.736996583333333,SMBus,Byte 0x1A ACK
14.737118750000000,SMBus,Byte 0xC1 ACK
14.737354500000000,SMBus,Byte 0x09 ACK
14.737533500000000,SMBus,Byte 0x15 ACK
14.737712500000001,SMBus,Byte 0x00 ACK
14.737891500000000,SMBus,Byte 0x00 ACK
14.738069416666667,SMBus,Byte 0x00 ACK
14.738248416666666,SMBus,Byte 0x00 ACK
14.738424583333334,SMBus,PEC 0x5A OK
16.742122833333333,SMBus,Write address 0x0B ACK Protocol=Read word
16.742273000000001,SMBus,Command ManufacturerAccess 0x00
16.742480666666665,SMBus,Read address 0x0B ACK Protocol=Read word
16.742651416666668,SMBus,Word 0x1800 ACK
16.743001833333334,SMBus,PEC 0x32 OK
16.744512499999999,SMBus,Write address 0x0B ACK Protocol=Read word
16.744662666666667,SMBus,Command BatteryStatus 0x16
16.744908666666667,SMBus,Read address 0x0B ACK Protocol=Read word
16.745034916666668,SMBus,BatteryStatus 0xE0C0 OVER CHARGED ALARM=1, TERMINATE CHARGE ALARM=1, OVER TEMP ALARM=0, TERMINATE DISCHARGE ALARM=0, REMAINING CAPACITY ALARM=0, REMAINING TIME ALARM=0, INITIALIZED=1, DISCHARGING=1, FULLY CHARGED=0, FULLY DISCHARGED=0, ErrorCode=OK
16.745391666666666,SMBus,PEC 0xD3 OK
16.747311083333333,SMBus,Write address 0x0B ACK Protocol=Read word
16.747461250000001,SMBus,Command ChargingCurrent 0x14
16.747668916666665,SMBus,Read address 0x0B ACK Protocol=Read word
16.747869666666666,SMBus,Word 0x0000 ACK
16.748151916666668,SMBus,PEC 0xF2 OK
16.749662416666666,SMBus,Write address 0x0B ACK Protocol=Read word
16.749812500000001,SMBus,Command ChargingVoltage 0x15
16.750020166666665,SMBus,Read address 0x0B ACK Protocol=Read word
16.750221750000001,SMBus,Word 0x3831 ACK
16.750567333333333,SMBus,PEC 0x22 OK
16.752154250000000,SMBus,Write address 0x0B ACK Protocol=Read word
16.752304416666668,SMBus,Command Temperature 0x08
16.752512083333333,SMBus,Read address 0x0B ACK Protocol=Read word
16.752638416666667,SMBus,Word 0x920B ACK
16.752995083333332,SMBus,PEC 0x87 OK
16.754543916666666,SMBus,Write address 0x0B ACK Protocol=Read word
16.754694083333334,SMBus,Command <error> 0x3B
16.754901749999998,SMBus,Read address 0x0B ACK Protocol=Read word
16.755028166666666,SMBus,Word 0x920B ACK
16.755461000000000,SMBus,PEC 0x14 OK
16.757304166666668,SMBus,Write address 0x0B ACK Protocol=Read word
16.757454333333332,SMBus,Command Voltage 0x09
16.757662000000000,SMBus,Read address 0x0B ACK Protocol=Read word
16.757847000000002,SMBus,Word 0x5730 ACK
16.758144999999999,SMBus,PEC 0x9C OK
16.759668250000001,SMBus,Write address 0x0B ACK Protocol=Read word
16.759818416666668,SMBus,Command RemainingCapacity 0x0F
16.760026083333333,SMBus,Read address 0x0B ACK Protocol=Read word
16.760219500000002,SMBus,Word 0x7D15 ACK
16.760560333333334,SMBus,PEC 0x3F OK
16.762147416666668,SMBus,Write address 0x0B ACK Protocol=Read word
16.762297499999999,SMBus,Command FullChargeCapacity 0x10
16.762505166666667,SMBus,Read address 0x0B ACK Protocol=Read word
16.762631666666667,SMBus,Word 0xA815 ACK
16.763038833333333,SMBus,PEC 0x71 OK
16.764549833333334,SMBus,Write address 0x0B ACK Protocol=Read word
16.764699916666668,SMBus,Command Current 0x0A
16.764907583333333,SMBus,Read address 0x0B ACK Protocol=Read word
16.765033583333334,SMBus,Word 0xC3FC ACK
16.765429166666667,SMBus,PEC 0x79 OK
16.767284499999999,SMBus,Write address 0x0B ACK Protocol=Read word
16.767434666666666,SMBus,Command RunTimeToEmpty 0x11
16.767642333333335,SMBus,Read address 0x0B ACK Protocol=Read word
16.767768250000000,SMBus,Word 0x8101 ACK
16.768188583333334,SMBus,PEC 0x18 OK
16.769674166666668,SMBus,Write address 0x0B ACK Protocol=Read word
16.769824333333332,SMBus,Command AverageCurrent 0x0B
16.770031916666667,SMBus,Read address 0x0B ACK Protocol=Read word
16.770158416666668,SMBus,Word 0xE9FC ACK
16.770553083333333,SMBus,PEC 0x43 OK
16.772153249999999,SMBus,Write address 0x0B ACK Protocol=Read word
16.772303416666666,SMBus,Command AverageTimeToFull 0x13
16.772511083333335,SMBus,Read address 0x0B ACK Protocol=Read word
16.772637166666666,SMBus,Word 0xFFFF ACK
16.772994083333334,SMBus,PEC 0xB4 OK
16.774555666666668,SMBus,Write address 0x0B ACK Protocol=Read word
16.774705833333332,SMBus,Command AverageTimeToEmpty 0x12
16.774913500000000,SMBus,Read address 0x0B ACK Protocol=Read word
16.775039666666668,SMBus,Word 0x8101 ACK
16.775460166666665,SMBus,PEC 0x22 OK
16.777341499999999,SMBus,Write address 0x0B ACK Protocol=Read word
16.777491666666666,SMBus,Command CycleCount 0x17
16.777699333333334,SMBus,Read address 0x0B ACK Protocol=Read word
16.777825416666666,SMBus,Word 0xF100 ACK
16.778182333333334,SMBus,PEC 0xC9 OK
16.779705583333332,SMBus,Write address 0x0B ACK Protocol=Read word
16.779855749999999,SMBus,Command MaxError 0x0C
16.780063416666668,SMBus,Read address 0x0B ACK Protocol=Read word
16.780251000000000,SMBus,Word 0x0800 ACK
16.780533583333334,SMBus,PEC 0x8D OK
16.782171916666666,SMBus,Write address 0x0B ACK Protocol=Read word
16.782322083333334,SMBus,Command RelativeStateOfCharge 0x0D
16.782529749999998,SMBus,Read address 0x0B ACK Protocol=Read word
16.782719666666665,SMBus,Word 0x6300 ACK
16.782999916666668,SMBus,PEC 0xF9 OK
16.784548749999999,SMBus,Write address 0x0B ACK Protocol=Block write
16.784698916666667,SMBus,Command ManufacturerData 0x23
16.784906583333335,SMBus,Read address 0x0B ACK Protocol=Block write
16.785116750000000,SMBus,Byte count 0x0C
16.785292916666666,SMBus,Byte 0x42 ACK
16.785471916666665,SMBus,Byte 0x0A ACK
16.785650916666668,SMBus,Byte 0x05 ACK
16.785829916666668,SMBus,Byte 0x12 ACK
16.785951833333332,SMBus,Byte 0x86 ACK
16.786187833333333,SMBus,Byte 0x0F ACK
16.786309666666668,SMBus,Byte 0x86 ACK
16.786544916666667,SMBus,Byte 0x0F ACK
16.786667500000000,SMBus,Byte 0x86 ACK
16.786902916666666,SMBus,Byte 0x0F ACK
16.787025249999999,SMBus,Byte 0x86 ACK
16.787261083333334,SMBus,Byte 0x0F ACK
16.787437250000000,SMBus,PEC 0x1B OK
16.788970249999998,SMBus,Write address 0x0B ACK Protocol=Block write
16.789120416666666,SMBus,Command <error> 0x30
16.789328083333334,SMBus,Read address 0x0B ACK Protocol=Block write
16.789542166666667,SMBus,Byte count 0x0A
16.789714499999999,SMBus,Byte 0x09 ACK
16.789836666666666,SMBus,Byte 0xEB ACK
16.790072416666668,SMBus,Byte 0x1A ACK
16.790194416666665,SMBus,Byte 0xC1 ACK
16.790430416666666,SMBus,Byte 0x09 ACK
16.790609333333332,SMBus,Byte 0x15 ACK
16.790787416666667,SMBus,Byte 0x00 ACK
16.790979750000002,SMBus,Byte 0x00 ACK
16.791159666666665,SMBus,Byte 0x00 ACK
16.791337666666667,SMBus,Byte 0x00 ACK
16.791513833333333,SMBus,PEC 0x5A OK
18.795556250000001,SMBus,Write address 0x0B ACK Protocol=Read word
18.795706333333332,SMBus,Command ManufacturerAccess 0x00
18.795914000000000,SMBus,Read address 0x0B ACK Protocol=Read word
18.796084083333334,SMBus,Word 0x1800 ACK
18.796447666666666,SMBus,PEC 0x32 OK
18.797958666666666,SMBus,Write address 0x0B ACK Protocol=Read word
18.798108833333334,SMBus,Command BatteryStatus 0x16
18.798316499999999,SMBus,Read address 0x0B ACK Protocol=Read word
18.798442833333333,SMBus,BatteryStatus 0xE0C0 OVER CHARGED ALARM=1, TERMINATE CHARGE ALARM=1, OVER TEMP ALARM=0, TERMINATE DISCHARGE ALARM=0, REMAINING CAPACITY ALARM=0, REMAINING TIME ALARM=0, INITIALIZED=1, DISCHARGING=1, FULLY CHARGED=0, FULLY DISCHARGED=0, ErrorCode=OK
18.798799500000001,SMBus,PEC 0xD3 OK
18.800373833333332,SMBus,Write address 0x0B ACK Protocol=Read word
18.800523999999999,SMBus,Command ChargingCurrent 0x14
18.800750833333332,SMBus,Read address 0x0B ACK Protocol=Read word
18.800971333333333,SMBus,Word 0x0000 ACK
18.801252999999999,SMBus,PEC 0xF2 OK
18.802814666666666,SMBus,Write address 0x0B ACK Protocol=Read word
18.802964750000001,SMBus,Command ChargingVoltage 0x15
18.803172416666666,SMBus,Read address 0x0B ACK Protocol=Read word
18.803374666666667,SMBus,Word 0x3831 ACK
18.803705999999998,SMBus,PEC 0x22 OK
18.805165916666667,SMBus,Write address 0x0B ACK Protocol=Read word
18.805316083333334,SMBus,Command Temperature 0x08
18.805523749999999,SMBus,Read address 0x0B ACK Protocol=Read word
18.805649666666667,SMBus,Word 0x920B ACK
18.805993999999998,SMBus,PEC 0x87 OK
18.807555583333333,SMBus,Write address 0x0B ACK Protocol=Read word
18.807705750000000,SMBus,Command <error> 0x3B
18.807913416666668,SMBus,Read address 0x0B ACK Protocol=Read word
18.808039583333333,SMBus,Word 0x920B ACK
18.808473333333332,SMBus,PEC 0x14 OK
18.809983583333334,SMBus,Write address 0x0B ACK Protocol=Read word
18.810133749999999,SMBus,Command Voltage 0x09
18.810341416666667,SMBus,Read address 0x0B ACK Protocol=Read word
18.810525999999999,SMBus,Word 0x5B30 ACK
18.810862166666666,SMBus,PEC 0x60 OK
18.812373250000000,SMBus,Write address 0x0B ACK Protocol=Read word
18.812523416666668,SMBus,Command RemainingCapacity 0x0F
18.812731083333333,SMBus,Read address 0x0B ACK Protocol=Read word
18.812924416666668,SMBus,Word 0x7C15 ACK
18.813265250000001,SMBus,PEC 0x2A OK
18.815031250000001,SMBus,Write address 0x0B ACK Protocol=Read word
18.815181416666668,SMBus,Command FullChargeCapacity 0x10
18.815389083333333,SMBus,Read address 0x0B ACK Protocol=Read word
18.815515416666667,SMBus,Word 0xA815 ACK
18.815922583333332,SMBus,PEC 0x71 OK
18.817446499999999,SMBus,Write address 0x0B ACK Protocol=Read word
18.817596583333334,SMBus,Command Current 0x0A
18.817804249999998,SMBus,Read address 0x0B ACK Protocol=Read word
18.817930166666667,SMBus,Word 0xF6FC ACK
18.818274500000001,SMBus,PEC 0xC1 OK
18.819823333333332,SMBus,Write address 0x0B ACK Protocol=Read word
18.819973500000000,SMBus,Command RunTimeToEmpty 0x11
18.820181166666668,SMBus,Read address 0x0B ACK Protocol=Read word
18.820307750000001,SMBus,Word 0x8801 ACK
18.820664166666667,SMBus,PEC 0xA5 OK
18.822174666666665,SMBus,Write address 0x0B ACK Protocol=Read word
18.822324833333333,SMBus,Command AverageCurrent 0x0B
18.822532500000001,SMBus,Read address 0x0B ACK Protocol=Read word
18.822658666666666,SMBus,Word 0xF3FC ACK
18.823002666666667,SMBus,PEC 0x96 OK
18.824947666666667,SMBus,Write address 0x0B ACK Protocol=Read word
18.825097833333334,SMBus,Command AverageTimeToFull 0x13
18.825305499999999,SMBus,Read address 0x0B ACK Protocol=Read word
18.825432166666666,SMBus,Word 0xFFFF ACK
18.825801250000001,SMBus,PEC 0xB4 OK
18.827362916666665,SMBus,Write address 0x0B ACK Protocol=Read word
18.827513000000000,SMBus,Command AverageTimeToEmpty 0x12
18.827720666666668,SMBus,Read address 0x0B ACK Protocol=Read word
18.827846833333332,SMBus,Word 0x8801 ACK
18.828203666666667,SMBus,PEC 0x9F OK
18.829778083333334,SMBus,Write address 0x0B ACK Protocol=Read word
18.829928249999998,SMBus,Command CycleCount 0x17
18.830135916666666,SMBus,Read address 0x0B ACK Protocol=Read word
18.830261833333335,SMBus,Word 0xF100 ACK
18.830618916666666,SMBus,PEC 0xC9 OK
18.832155000000000,SMBus,Write address 0x0B ACK Protocol=Read word
18.832305166666668,SMBus,Command MaxError 0x0C
18.832512749999999,SMBus,Read address 0x0B ACK Protocol=Read word
18.832700750000001,SMBus,Word 0x0800 ACK
18.832995749999998,SMBus,PEC 0x8D OK
18.834953583333334,SMBus,Write address 0x0B ACK Protocol=Read word
18.835103666666665,SMBus,Command RelativeStateOfCharge 0x0D
18.835311333333333,SMBus,Read address 0x0B ACK Protocol=Read word
18.835501833333332,SMBus,Word 0x6300 ACK
18.835781500000000,SMBus,PEC 0xF9 OK
18.837343250000000,SMBus,Write address 0x0B ACK Protocol=Block write
18.837493333333335,SMBus,Command ManufacturerData 0x23
18.837700999999999,SMBus,Read address 0x0B ACK Protocol=Block write
18.837911250000001,SMBus,Byte count 0x0C
18.838087416666667,SMBus,Byte 0x42 ACK
18.838266500000000,SMBus,Byte 0x0A ACK
18.838445499999999,SMBus,Byte 0x05 ACK
18.838623500000001,SMBus,Byte 0x12 ACK
18.838746333333333,SMBus,Byte 0x86 ACK
18.838981499999999,SMBus,Byte 0x0F ACK
18.839104083333332,SMBus,Byte 0x86 ACK
18.839339583333334,SMBus,Byte 0x0F ACK
18.839461916666668,SMBus,Byte 0x86 ACK
18.839697583333333,SMBus,Byte 0x0F ACK
18.839819750000000,SMBus,Byte 0x86 ACK
18.840055499999998,SMBus,Byte 0x0F ACK
18.840231750000001,SMBus,PEC 0x1B OK
18.841764749999999,SMBus,Write address 0x0B ACK Protocol=Block write
18.841914833333334,SMBus,Command <error> 0x30
18.842122499999999,SMBus,Read address 0x0B ACK Protocol=Block write
18.842334083333334,SMBus,Byte count 0x0A
18.842509249999999,SMBus,Byte 0x09 ACK
18.842631083333334,SMBus,Byte 0xEB ACK
18.842866250000000,SMBus,Byte 0x1A ACK
18.842988916666666,SMBus,Byte 0xC1 ACK
18.843224166666666,SMBus,Byte 0x09 ACK
18.843403166666668,SMBus,Byte 0x15 ACK
18.843582166666668,SMBus,Byte 0x00 ACK
18.843761083333334,SMBus,Byte 0x00 ACK
18.843940000000000,SMBus,Byte 0x00 ACK
18.844118916666666,SMBus,Byte 0x00 ACK
18.844294999999999,SMBus,PEC 0x5A OK
20.847984916666668,SMBus,Write address 0x0B ACK Protocol=Read word
20.848135083333332,SMBus,Command ManufacturerAccess 0x00
20.848342750000000,SMBus,Read address 0x0B ACK Protocol=Read word
20.848513000000001,SMBus,Word 0x1800 ACK
20.848864333333335,SMBus,PEC 0x32 OK
20.850374583333334,SMBus,Write address 0x0B ACK Protocol=Read word
20.850524750000002,SMBus,Command BatteryStatus 0x16
20.850770749999999,SMBus,Read address 0x0B ACK Protocol=Read word
20.850897333333332,SMBus,BatteryStatus 0xE0C0 OVER CHARGED ALARM=1, TERMINATE CHARGE ALARM=1, OVER TEMP ALARM=0, TERMINATE DISCHARGE ALARM=0, REMAINING CAPACITY ALARM=0, REMAINING TIME ALARM=0, INITIALIZED=1, DISCHARGING=1, FULLY CHARGED=0, FULLY DISCHARGED=0, ErrorCode=OK
20.851253750000001,SMBus,PEC 0xD3 OK
20.852840916666668,SMBus,Write address 0x0B ACK Protocol=Read word
20.852991083333333,SMBus,Command ChargingCurrent 0x14
20.853198750000001,SMBus,Read address 0x0B ACK Protocol=Read word
20.853399916666667,SMBus,Word 0x0000 ACK
20.853681750000000,SMBus,PEC 0xF2 OK
20.855243333333334,SMBus,Write address 0x0B ACK Protocol=Read word
20.855393500000002,SMBus,Command ChargingVoltage 0x15
20.855601166666666,SMBus,Read address 0x0B ACK Protocol=Read word
20.855803000000002,SMBus,Word 0x3831 ACK
20.856135333333334,SMBus,PEC 0x22 OK
20.857594666666667,SMBus,Write address 0x0B ACK Protocol=Read word
20.857744833333335,SMBus,Command Temperature 0x08
20.857952500000000,SMBus,Read address 0x0B ACK Protocol=Read word
20.858079000000000,SMBus,Word 0x920B ACK
20.858422666666666,SMBus,PEC 0x87 OK
20.859984333333333,SMBus,Write address 0x0B ACK Protocol=Read word
20.860134500000001,SMBus,Command <error> 0x3B
20.860342166666666,SMBus,Read address 0x0B ACK Protocol=Read word
20.860468500000000,SMBus,Word 0x920B ACK
20.860901333333334,SMBus,PEC 0x14 OK
20.862540083333332,SMBus,Write address 0x0B ACK Protocol=Read word
20.862690250000000,SMBus,Command Voltage 0x09
20.862897916666668,SMBus,Read address 0x0B ACK Protocol=Read word
20.863082583333334,SMBus,Word 0x5B30 ACK
20.863418750000001,SMBus,PEC 0x60 OK
20.864916999999998,SMBus,Write address 0x0B ACK Protocol=Read word
20.865067166666666,SMBus,Command RemainingCapacity 0x0F
20.865274833333334,SMBus,Read address 0x0B ACK Protocol=Read word
20.865468249999999,SMBus,Word 0x7C15 ACK
20.865809166666665,SMBus,PEC 0x2A OK
20.867319416666668,SMBus,Write address 0x0B ACK Protocol=Read word
20.867469583333332,SMBus,Command FullChargeCapacity 0x10
20.867677250000000,SMBus,Read address 0x0B ACK Protocol=Read word
20.867803666666667,SMBus,Word 0xA815 ACK
20.868210833333332,SMBus,PEC 0x71 OK
20.869747416666666,SMBus,Write address 0x0B ACK Protocol=Read word
20.869897583333334,SMBus,Command Current 0x0A
20.870105250000002,SMBus,Read address 0x0B ACK Protocol=Read word
20.870231583333332,SMBus,Word 0xFCFC ACK
20.870638833333334,SMBus,PEC 0x43 OK
20.872456499999998,SMBus,Write address 0x0B ACK Protocol=Read word
20.872606666666666,SMBus,Command RunTimeToEmpty 0x11
20.872814333333334,SMBus,Read address 0x0B ACK Protocol=Read word
20.872940249999999,SMBus,Word 0x8B01 ACK
20.873297333333333,SMBus,PEC 0x9A OK
20.874884500000000,SMBus,Write address 0x0B ACK Protocol=Read word
20.875034666666668,SMBus,Command AverageCurrent 0x0B
20.875242333333333,SMBus,Read address 0x0B ACK Protocol=Read word
20.875368166666668,SMBus,Word 0xF9FC ACK
20.875763833333334,SMBus,PEC 0x14 OK
20.877286999999999,SMBus,Write address 0x0B ACK Protocol=Read word
20.877437083333334,SMBus,Command AverageTimeToFull 0x13
20.877644750000002,SMBus,Read address 0x0B ACK Protocol=Read word
20.877770583333334,SMBus,Word 0xFFFF ACK
20.878140583333334,SMBus,PEC 0xB4 OK
20.879714916666668,SMBus,Write address 0x0B ACK Protocol=Read word
20.879865083333332,SMBus,Command AverageTimeToEmpty 0x12
20.880072750000000,SMBus,Read address 0x0B ACK Protocol=Read word
20.880199250000000,SMBus,Word 0x8B01 ACK
20.880555749999999,SMBus,PEC 0xA0 OK
20.882424083333333,SMBus,Write address 0x0B ACK Protocol=Read word
20.882574250000001,SMBus,Command CycleCount 0x17
20.882781916666666,SMBus,Read address 0x0B ACK Protocol=Read word
20.882908083333334,SMBus,Word 0xF100 ACK
20.883277666666668,SMBus,PEC 0xC9 OK
20.884864833333335,SMBus,Write address 0x0B ACK Protocol=Read word
20.885014999999999,SMBus,Command MaxError 0x0C
20.885222666666667,SMBus,Read address 0x0B ACK Protocol=Read word
20.885410416666666,SMBus,Word 0x0800 ACK
20.885692833333334,SMBus,PEC 0x8D OK
20.887267250000001,SMBus,Write address 0x0B ACK Protocol=Read word
20.887417416666668,SMBus,Command RelativeStateOfCharge 0x0D
20.887625083333333,SMBus,Read address 0x0B ACK Protocol=Read word
20.887815166666666,SMBus,Word 0x6300 ACK
20.888095333333332,SMBus,PEC 0xF9 OK
20.889631333333334,SMBus,Write address 0x0B ACK Protocol=Block write
20.889781500000002,SMBus,Command ManufacturerData 0x23
20.889989166666666,SMBus,Read address 0x0B ACK Protocol=Block write
20.890199166666665,SMBus,Byte count 0x0C
20.890375333333335,SMBus,Byte 0x42 ACK
20.890555249999998,SMBus,Byte 0x0A ACK
20.890733333333333,SMBus,Byte 0x05 ACK
20.890912333333333,SMBus,Byte 0x12 ACK
20.891034416666667,SMBus,Byte 0x86 ACK
20.891270250000002,SMBus,Byte 0x0F ACK
20.891392249999999,SMBus,Byte 0x86 ACK
20.891628166666667,SMBus,Byte 0x0F ACK
20.891750083333335,SMBus,Byte 0x86 ACK
20.891985250000001,SMBus,Byte 0x0F ACK
20.892107916666667,SMBus,Byte 0x86 ACK
20.892343250000000,SMBus,Byte 0x0F ACK
20.892519333333333,SMBus,PEC 0x1B OK
20.894065666666666,SMBus,Write address 0x0B ACK Protocol=Block write
20.894215833333334,SMBus,Command <error> 0x30
20.894423416666665,SMBus,Read address 0x0B ACK Protocol=Block write
20.894634750000002,SMBus,Byte count 0x0A
20.894809916666667,SMBus,Byte 0x09 ACK
20.894932000000001,SMBus,Byte 0xEB ACK
20.895168000000002,SMBus,Byte 0x1A ACK
20.895289833333333,SMBus,Byte 0xC1 ACK
20.895525166666665,SMBus,Byte 0x09 ACK
20.895704166666668,SMBus,Byte 0x15 ACK
20.895883166666668,SMBus,Byte 0x00 ACK
20.896062166666667,SMBus,Byte 0x00 ACK
20.896241166666666,SMBus,Byte 0x00 ACK
20.896420166666665,SMBus,Byte 0x00 ACK
20.896596250000002,SMBus,PEC 0x5A OK
22.900423249999999,SMBus,Write address 0x0B ACK Protocol=Read word
22.900573333333334,SMBus,Command ManufacturerAccess 0x00
22.900780999999998,SMBus,Read address 0x0B ACK Protocol=Read word
22.900951750000001,SMBus,Word 0x1800 ACK
22.901302166666667,SMBus,PEC 0x32 OK
22.902825666666665,SMBus,Write address 0x0B ACK Protocol=Read word
22.902975833333333,SMBus,Command BatteryStatus 0x16
22.903183500000001,SMBus,Read address 0x0B ACK Protocol=Read word
22.903309333333333,SMBus,BatteryStatus 0xE0C0 OVER CHARGED ALARM=1, TERMINATE CHARGE ALARM=1, OVER TEMP ALARM=0, TERMINATE DISCHARGE ALARM=0, REMAINING CAPACITY ALARM=0, REMAINING TIME ALARM=0, INITIALIZED=1, DISCHARGING=1, FULLY CHARGED=0, FULLY DISCHARGED=0, ErrorCode=OK
22.903679166666667,SMBus,PEC 0xD3 OK
22.905266416666667,SMBus,Write address 0x0B ACK Protocol=Read word
22.905416583333334,SMBus,Command ChargingCurrent 0x14
22.905624249999999,SMBus,Read address 0x0B ACK Protocol=Read word
22.905824916666667,SMBus,Word 0x0000 ACK
22.906120000000001,SMBus,PEC 0xF2 OK
22.907694416666665,SMBus,Write address 0x0B ACK Protocol=Read word
22.907844583333333,SMBus,Command ChargingVoltage 0x15
22.908052250000001,SMBus,Read address 0x0B ACK Protocol=Read word
22.908254500000002,SMBus,Word 0x3831 ACK
22.908585750000000,SMBus,PEC 0x22 OK
22.910071250000001,SMBus,Write address 0x0B ACK Protocol=Read word
22.910221416666666,SMBus,Command Temperature 0x08
22.910429083333334,SMBus,Read address 0x0B ACK Protocol=Read word
22.910555750000000,SMBus,Word 0x920B ACK
22.910899333333333,SMBus,PEC 0x87 OK
22.912486500000000,SMBus,Write address 0x0B ACK Protocol=Read word
22.912636666666668,SMBus,Command <error> 0x3B
22.912844333333332,SMBus,Read address 0x0B ACK Protocol=Read word
22.912970833333333,SMBus,Word 0x920B ACK
22.913403583333334,SMBus,PEC 0x14 OK
22.914940083333335,SMBus,Write address 0x0B ACK Protocol=Read word
22.915128500000002,SMBus,Command Voltage 0x09
22.915336166666666,SMBus,Read address 0x0B ACK Protocol=Read word
22.915520833333332,SMBus,Word 0x5A30 ACK
22.915857750000001,SMBus,PEC 0x75 OK
22.917393583333332,SMBus,Write address 0x0B ACK Protocol=Read word
22.917543750000000,SMBus,Command RemainingCapacity 0x0F
22.917751416666668,SMBus,Read address 0x0B ACK Protocol=Read word
22.917944416666668,SMBus,Word 0x7B15 ACK
22.918299416666667,SMBus,PEC 0x41 OK
22.919974916666668,SMBus,Write address 0x0B ACK Protocol=Read word
22.920125083333332,SMBus,Command FullChargeCapacity 0x10
22.920332750000000,SMBus,Read address 0x0B ACK Protocol=Read word
22.920458750000002,SMBus,Word 0xA814 ACK
22.920802583333334,SMBus,Bad PEC 0x38 should be 0x76
22.922402916666666,SMBus,Write address 0x0B ACK Protocol=Read word
22.922553083333334,SMBus,Command Current 0x0A
22.922760749999998,SMBus,Read address 0x0B ACK Protocol=Read word
22.922887333333332,SMBus,Word 0xFAFC ACK
22.923282000000000,SMBus,PEC 0x3D OK
22.924818166666668,SMBus,Write address 0x0B ACK Protocol=Read word
22.924968249999999,SMBus,Command RunTimeToEmpty 0x11
22.925175916666667,SMBus,Read address 0x0B ACK Protocol=Read word
22.925302500000001,SMBus,Word 0x8A01 ACK
22.925658916666666,SMBus,PEC 0x8F OK
22.927246166666666,SMBus,Write address 0x0B ACK Protocol=Read word
22.927396250000001,SMBus,Command AverageCurrent 0x0B
22.927603916666666,SMBus,Read address 0x0B ACK Protocol=Read word
22.927729833333334,SMBus,Word 0xFAFC ACK
22.928125333333334,SMBus,PEC 0x2B OK
22.929942499999999,SMBus,Write address 0x0B ACK Protocol=Read word
22.930092583333334,SMBus,Command AverageTimeToFull 0x13
22.930300249999998,SMBus,Read address 0x0B ACK Protocol=Read word
22.930426333333333,SMBus,Word 0xFFFF ACK
22.930783250000001,SMBus,PEC 0xB4 OK
22.932370416666668,SMBus,Write address 0x0B ACK Protocol=Read word
22.932520583333332,SMBus,Command AverageTimeToEmpty 0x12
22.932728250000000,SMBus,Read address 0x0B ACK Protocol=Read word
22.932854416666668,SMBus,Word 0x8A01 ACK
22.933236833333332,SMBus,PEC 0xB5 OK
22.934836749999999,SMBus,Write address 0x0B ACK Protocol=Read word
22.934986916666666,SMBus,Command CycleCount 0x17
22.935194583333335,SMBus,Read address 0x0B ACK Protocol=Read word
22.935320833333332,SMBus,Word 0xF100 ACK
22.935677583333334,SMBus,PEC 0xC9 OK
22.937290333333333,SMBus,Write address 0x0B ACK Protocol=Read word
22.937440500000001,SMBus,Command MaxError 0x0C
22.937648166666666,SMBus,Read address 0x0B ACK Protocol=Read word
22.937835583333332,SMBus,Word 0x0800 ACK
22.938118333333332,SMBus,PEC 0x8D OK
22.939935583333334,SMBus,Write address 0x0B ACK Protocol=Read word
22.940085750000001,SMBus,Command RelativeStateOfCharge 0x0D
22.940293333333333,SMBus,Read address 0x0B ACK Protocol=Read word
22.940483499999999,SMBus,Word 0x6300 ACK
22.940763583333332,SMBus,PEC 0xF9 OK
22.942376333333332,SMBus,Write address 0x0B ACK Protocol=Block write
22.942526500000000,SMBus,Command ManufacturerData 0x23
22.942734166666668,SMBus,Read address 0x0B ACK Protocol=Block write
22.942944166666667,SMBus,Byte count 0x0C
22.943120333333333,SMBus,Byte 0x42 ACK
22.943299249999999,SMBus,Byte 0x0A ACK
22.943478249999998,SMBus,Byte 0x05 ACK
22.943657333333334,SMBus,Byte 0x12 ACK
22.943779416666668,SMBus,Byte 0x86 ACK
22.944015333333333,SMBus,Byte 0x0F ACK
22.944137250000001,SMBus,Byte 0x86 ACK
22.944372416666667,SMBus,Byte 0x0F ACK
22.944495000000000,SMBus,Byte 0x86 ACK
22.944730333333332,SMBus,Byte 0x0F ACK
22.944852833333332,SMBus,Byte 0x86 ACK
22.945088250000001,SMBus,Byte 0x0F ACK
22.945264416666667,SMBus,PEC 0x1B OK
22.946836166666667,SMBus,Write address 0x0B ACK Protocol=Block write
22.946986333333335,SMBus,Command <error> 0x30
22.947194000000000,SMBus,Read address 0x0B ACK Protocol=Block write
22.947405249999999,SMBus,Byte count 0x0A
22.947580333333335,SMBus,Byte 0x09 ACK
22.947702499999998,SMBus,Byte 0xEB ACK
22.947938250000000,SMBus,Byte 0x1A ACK
22.948060333333334,SMBus,Byte 0xC1 ACK
22.948296249999999,SMBus,Byte 0x09 ACK
22.948475250000001,SMBus,Byte 0x15 ACK
22.948653250000000,SMBus,Byte 0x00 ACK
22.948832166666666,SMBus,Byte 0x00 ACK
22.949011083333332,SMBus,Byte 0x00 ACK
22.949190000000002,SMBus,Byte 0x00 ACK
22.949366083333334,SMBus,PEC 0x5A OK
24.952872166666666,SMBus,Write address 0x0B ACK Protocol=Read word
24.953022250000000,SMBus,Command ManufacturerAccess 0x00
24.953229916666668,SMBus,Read address 0x0B ACK Protocol=Read word
24.953400500000001,SMBus,Word 0x1800 ACK
24.953764166666666,SMBus,PEC 0x32 OK
24.955312916666667,SMBus,Write address 0x0B ACK Protocol=Read word
24.955463083333335,SMBus,Command BatteryStatus 0x16
24.955670666666666,SMBus,Read address 0x0B ACK Protocol=Read word
24.955796916666667,SMBus,BatteryStatus 0xE0C0 OVER CHARGED ALARM=1, TERMINATE CHARGE ALARM=1, OVER TEMP ALARM=0, TERMINATE DISCHARGE ALARM=0, REMAINING CAPACITY ALARM=0, REMAINING TIME ALARM=0, INITIALIZED=1, DISCHARGING=1, FULLY CHARGED=0, FULLY DISCHARGED=0, ErrorCode=OK
24.956153749999999,SMBus,PEC 0xD3 OK
24.957779250000002,SMBus,Write address 0x0B ACK Protocol=Read word
24.957929333333333,SMBus,Command ChargingCurrent 0x14
24.958137000000001,SMBus,Read address 0x0B ACK Protocol=Read word
24.958338083333334,SMBus,Word 0x0000 ACK
24.958620000000000,SMBus,PEC 0xF2 OK
24.960424499999998,SMBus,Write address 0x0B ACK Protocol=Read word
24.960574583333333,SMBus,Command ChargingVoltage 0x15
24.960782250000001,SMBus,Read address 0x0B ACK Protocol=Read word
24.960984249999999,SMBus,Word 0x3831 ACK
24.961316583333332,SMBus,PEC 0x22 OK
24.963095249999999,SMBus,Write address 0x0B ACK Protocol=Read word
24.963245416666666,SMBus,Command Temperature 0x08
24.963453083333334,SMBus,Read address 0x0B ACK Protocol=Read word
24.963579583333335,SMBus,Word 0x920B ACK
24.963923250000001,SMBus,PEC 0x87 OK
24.965472083333335,SMBus,Write address 0x0B ACK Protocol=Read word
24.965622249999999,SMBus,Command <error> 0x3B
24.965829916666667,SMBus,Read address 0x0B ACK Protocol=Read word
24.965956666666667,SMBus,Word 0x920B ACK
24.966389416666665,SMBus,PEC 0x14 OK
24.967938416666666,SMBus,Write address 0x0B ACK Protocol=Read word
24.968088583333333,SMBus,Command Voltage 0x09
24.968296250000002,SMBus,Read address 0x0B ACK Protocol=Read word
24.968480666666668,SMBus,Word 0x5630 ACK
24.968766500000001,SMBus,PEC 0x89 OK
24.970340916666668,SMBus,Write address 0x0B ACK Protocol=Read word
24.970490999999999,SMBus,Command RemainingCapacity 0x0F
24.970698666666667,SMBus,Read address 0x0B ACK Protocol=Read word
24.970891916666666,SMBus,Word 0x7B15 ACK
24.971232749999999,SMBus,PEC 0x41 OK
24.972768833333333,SMBus,Write address 0x0B ACK Protocol=Read word
24.972919000000001,SMBus,Command FullChargeCapacity 0x10
24.973126666666666,SMBus,Read address 0x0B ACK Protocol=Read word
24.973253083333333,SMBus,Word 0xA815 ACK
24.973660166666665,SMBus,PEC 0x71 OK
24.975209666666668,SMBus,Write address 0x0B ACK Protocol=Read word
24.975359749999999,SMBus,Command Current 0x0A
24.975605750000000,SMBus,Read address 0x0B ACK Protocol=Read word
24.975732000000001,SMBus,Word 0xF4FC ACK
24.976075999999999,SMBus,PEC 0xEB OK
24.977675999999999,SMBus,Write address 0x0B ACK Protocol=Read word
24.977826083333333,SMBus,Command RunTimeToEmpty 0x11
24.978033750000002,SMBus,Read address 0x0B ACK Protocol=Read word
24.978160416666668,SMBus,Word 0x8701 ACK
24.978567333333334,SMBus,PEC 0x66 OK
24.980104000000001,SMBus,Write address 0x0B ACK Protocol=Read word
24.980254083333332,SMBus,Command AverageCurrent 0x0B
24.980461750000000,SMBus,Read address 0x0B ACK Protocol=Read word
24.980587666666668,SMBus,Word 0xF4FC ACK
24.980931999999999,SMBus,PEC 0xFD OK
24.982512750000001,SMBus,Write address 0x0B ACK Protocol=Read word
24.982682083333334,SMBus,Command AverageTimeToFull 0x13
24.982889749999998,SMBus,Read address 0x0B ACK Protocol=Read word
24.983015750000000,SMBus,Word 0xFFFF ACK
24.983372750000001,SMBus,PEC 0xB4 OK
24.984921583333332,SMBus,Write address 0x0B ACK Protocol=Read word
24.985071749999999,SMBus,Command AverageTimeToEmpty 0x12
24.985279416666668,SMBus,Read address 0x0B ACK Protocol=Read word
24.985406000000001,SMBus,Word 0x8701 ACK
24.985812916666667,SMBus,PEC 0x5C OK
24.987822416666667,SMBus,Write address 0x0B ACK Protocol=Read word
24.987972583333335,SMBus,Command CycleCount 0x17
24.988180249999999,SMBus,Read address 0x0B ACK Protocol=Read word
24.988306416666667,SMBus,Word 0xF100 ACK
24.988663249999998,SMBus,PEC 0xC9 OK
25.000856916666667,SMBus,Write address 0x0B ACK Protocol=Read word
25.001007000000001,SMBus,Command MaxError 0x0C
25.001214666666666,SMBus,Read address 0x0B ACK Protocol=Read word
25.001402583333334,SMBus,Word 0x0800 ACK
25.001697666666665,SMBus,PEC 0x8D OK
25.013789166666665,SMBus,Write address 0x0B ACK Protocol=Read word
25.013939250000000,SMBus,Command RelativeStateOfCharge 0x0D
25.014146916666668,SMBus,Read address 0x0B ACK Protocol=Read word
25.014337666666666,SMBus,Word 0x6300 ACK
25.014629916666667,SMBus,PEC 0xF9 OK
25.026772500000000,SMBus,Write address 0x0B ACK Protocol=Block write
25.026922666666668,SMBus,Command ManufacturerData 0x23
25.027130333333332,SMBus,Read address 0x0B ACK Protocol=Block write
25.027340833333334,SMBus,Byte count 0x0C
25.027517000000000,SMBus,Byte 0x42 ACK
25.027695000000001,SMBus,Byte 0x0A ACK
25.027874083333334,SMBus,Byte 0x05 ACK
25.028053000000000,SMBus,Byte 0x12 ACK
25.028175583333333,SMBus,Byte 0x86 ACK
25.028410916666665,SMBus,Byte 0x0F ACK
25.028533416666665,SMBus,Byte 0x86 ACK
25.028768916666667,SMBus,Byte 0x0F ACK
25.028891166666668,SMBus,Byte 0x86 ACK
25.029126833333333,SMBus,Byte 0x0F ACK
25.029249000000000,SMBus,Byte 0x86 ACK
25.029484916666668,SMBus,Byte 0x0F ACK
25.029661000000001,SMBus,PEC 0x1B OK
25.041749333333332,SMBus,Write address 0x0B ACK Protocol=Block write
25.041899500000000,SMBus,Command <error> 0x30
25.042107166666668,SMBus,Read address 0x0B ACK Protocol=Block write
25.042318999999999,SMBus,Byte count 0x0A
25.042493166666667,SMBus,Byte 0x09 ACK
25.042615750000000,SMBus,Byte 0xEB ACK
25.042851166666665,SMBus,Byte 0x1A ACK
25.042973583333332,SMBus,Byte 0xC1 ACK
25.043209083333334,SMBus,Byte 0x09 ACK
25.043388083333333,SMBus,Byte 0x15 ACK
25.043567083333333,SMBus,Byte 0x00 ACK
25.043746083333332,SMBus,Byte 0x00 ACK
25.043925083333335,SMBus,Byte 0x00 ACK
25.044104000000001,SMBus,Byte 0x00 ACK
25.044280083333334,SMBus,PEC 0x5A OK
27.048293833333332,SMBus,Write address 0x0B ACK Protocol=Read word
27.048444000000000,SMBus,Command ManufacturerAccess 0x00
27.048651666666668,SMBus,Read address 0x0B ACK Protocol=Read word
27.048822250000001,SMBus,Word 0x1800 ACK
27.049160166666667,SMBus,PEC 0x32 OK
27.050670749999998,SMBus,Write address 0x0B ACK Protocol=Read word
27.050820833333333,SMBus,Command BatteryStatus 0x16
27.051028500000001,SMBus,Read address 0x0B ACK Protocol=Read word
27.051154749999998,SMBus,BatteryStatus 0xE0C0 OVER CHARGED ALARM=1, TERMINATE CHARGE ALARM=1, OVER TEMP ALARM=0, TERMINATE DISCHARGE ALARM=0, REMAINING CAPACITY ALARM=0, REMAINING TIME ALARM=0, INITIALIZED=1, DISCHARGING=1, FULLY CHARGED=0, FULLY DISCHARGED=0, ErrorCode=OK
27.051511500000000,SMBus,PEC 0xD3 OK
27.053430916666667,SMBus,Write address 0x0B ACK Protocol=Read word
27.053581083333334,SMBus,Command ChargingCurrent 0x14
27.053788749999999,SMBus,Read address 0x0B ACK Protocol=Read word
27.053989416666667,SMBus,Word 0x0000 ACK
27.054284583333335,SMBus,PEC 0xF2 OK
27.055807833333333,SMBus,Write address 0x0B ACK Protocol=Read word
27.055958000000000,SMBus,Command ChargingVoltage 0x15
27.056165666666665,SMBus,Read address 0x0B ACK Protocol=Read word
27.056367500000000,SMBus,Word 0x3831 ACK
27.056699666666667,SMBus,PEC 0x22 OK
27.058312500000000,SMBus,Write address 0x0B ACK Protocol=Read word
27.058462666666667,SMBus,Command Temperature 0x08
27.058670333333332,SMBus,Read address 0x0B ACK Protocol=Read word
27.058797083333335,SMBus,Word 0x920B ACK
27.059140500000002,SMBus,PEC 0x87 OK
27.060714916666665,SMBus,Write address 0x0B ACK Protocol=Read word
27.060865083333333,SMBus,Command <error> 0x3B
27.061072750000001,SMBus,Read address 0x0B ACK Protocol=Read word
27.061198833333332,SMBus,Word 0x920B ACK
27.061632500000002,SMBus,PEC 0x14 OK
27.063539083333332,SMBus,Write address 0x0B ACK Protocol=Read word
27.063689249999999,SMBus,Command Voltage 0x09
27.063916083333332,SMBus,Read address 0x0B ACK Protocol=Read word
27.064119916666666,SMBus,Word 0x5130 ACK
27.064405416666666,SMBus,PEC 0xE2 OK
27.065979833333333,SMBus,Write address 0x0B ACK Protocol=Read word
27.066130000000001,SMBus,Command RemainingCapacity 0x0F
27.066337666666666,SMBus,Read address 0x0B ACK Protocol=Read word
27.066531250000001,SMBus,Word 0x7A15 ACK
27.066871916666667,SMBus,PEC 0x54 OK
27.068484500000000,SMBus,Write address 0x0B ACK Protocol=Read word
27.068634666666668,SMBus,Command FullChargeCapacity 0x10
27.068842333333333,SMBus,Read address 0x0B ACK Protocol=Read word
27.068968666666667,SMBus,Word 0xA815 ACK
27.069376666666667,SMBus,PEC 0x71 OK
27.070861416666666,SMBus,Write address 0x0B ACK Protocol=Read word
27.071011500000001,SMBus,Command Current 0x0A
27.071219166666666,SMBus,Read address 0x0B ACK Protocol=Read word
27.071345500000000,SMBus,Word 0xDDFC ACK
27.071727750000001,SMBus,PEC 0xF8 OK
27.073800500000001,SMBus,Write address 0x0B ACK Protocol=Read word
27.073950666666665,SMBus,Command RunTimeToEmpty 0x11
27.074158333333333,SMBus,Read address 0x0B ACK Protocol=Read word
27.074354000000000,SMBus,Word 0x7E01 ACK
27.074641333333332,SMBus,PEC 0xCF OK
27.076202916666666,SMBus,Write address 0x0B ACK Protocol=Read word
27.076353083333334,SMBus,Command AverageCurrent 0x0B
27.076560749999999,SMBus,Read address 0x0B ACK Protocol=Read word
27.076686750000000,SMBus,Word 0xEAFC ACK
27.077094833333334,SMBus,PEC 0x7C OK
27.078682083333334,SMBus,Write address 0x0B ACK Protocol=Read word
27.078832166666668,SMBus,Command AverageTimeToFull 0x13
27.079039833333333,SMBus,Read address 0x0B ACK Protocol=Read word
27.079165833333334,SMBus,Word 0xFFFF ACK
27.079535666666665,SMBus,PEC 0xB4 OK
27.081097249999999,SMBus,Write address 0x0B ACK Protocol=Read word
27.081247416666667,SMBus,Command AverageTimeToEmpty 0x12
27.081480666666668,SMBus,Read address 0x0B ACK Protocol=Read word
27.081678583333332,SMBus,Word 0x7E01 ACK
27.081963666666667,SMBus,PEC 0xF5 OK
27.083889416666668,SMBus,Write address 0x0B ACK Protocol=Read word
27.084058750000001,SMBus,Command CycleCount 0x17
27.084266416666665,SMBus,Read address 0x0B ACK Protocol=Read word
27.084392583333333,SMBus,Word 0xF100 ACK
27.084749416666668,SMBus,PEC 0xC9 OK
27.086259916666666,SMBus,Write address 0x0B ACK Protocol=Read word
27.086410083333334,SMBus,Command MaxError 0x0C
27.086617749999998,SMBus,Read address 0x0B ACK Protocol=Read word
27.086805416666667,SMBus,Word 0x0800 ACK
27.087088000000001,SMBus,PEC 0x8D OK
27.088739083333333,SMBus,Write address 0x0B ACK Protocol=Read word
27.088889166666668,SMBus,Command RelativeStateOfCharge 0x0D
27.089096833333333,SMBus,Read address 0x0B ACK Protocol=Read word
27.089287416666668,SMBus,Word 0x6300 ACK
27.089567083333332,SMBus,PEC 0xF9 OK
27.091141499999999,SMBus,Write address 0x0B ACK Protocol=Block write
27.091291666666667,SMBus,Command ManufacturerData 0x23
27.091499333333335,SMBus,Read address 0x0B ACK Protocol=Block write
27.091709333333334,SMBus,Byte count 0x0C
27.091885416666667,SMBus,Byte 0x42 ACK
27.092077750000001,SMBus,Byte 0x0A ACK
27.092255750000000,SMBus,Byte 0x05 ACK
27.092434749999999,SMBus,Byte 0x12 ACK
27.092557333333332,SMBus,Byte 0x86 ACK
27.092792750000001,SMBus,Byte 0x0F ACK
27.092915166666668,SMBus,Byte 0x86 ACK
27.093150833333333,SMBus,Byte 0x0F ACK
27.093273000000000,SMBus,Byte 0x86 ACK
27.093508750000002,SMBus,Byte 0x0F ACK
27.093630749999999,SMBus,Byte 0x86 ACK
27.093866666666667,SMBus,Byte 0x0F ACK
27.094042750000000,SMBus,PEC 0x1B OK
27.095575749999998,SMBus,Write address 0x0B ACK Protocol=Block write
27.095725916666666,SMBus,Command <error> 0x30
27.095971916666667,SMBus,Read address 0x0B ACK Protocol=Block write
27.096182833333334,SMBus,Byte count 0x0A
27.096357999999999,SMBus,Byte 0x09 ACK
27.096480499999998,SMBus,Byte 0xF5 NACK
27.096646166666666,SMBus,Byte 0x0D ACK
27.096828083333332,SMBus,Byte 0x60 NACK
27.097003999999998,SMBus,Byte 0x04 NACK
27.097182916666668,SMBus,Byte 0x0A NACK
27.097361833333334,SMBus,Byte 0x00 ACK
27.097543750000000,SMBus,Byte 0x00 ACK
27.097722666666666,SMBus,Byte 0x00 ACK
27.097901499999999,SMBus,Byte 0x00 ACK
27.098080416666665,SMBus,Bad PEC 0x2D should be 0x75
29.101665666666666,SMBus,Write address 0x0B ACK Protocol=Read word
29.101815833333333,SMBus,Command ManufacturerAccess 0x00
29.102023500000001,SMBus,Read address 0x0B ACK Protocol=Read word
29.102194166666667,SMBus,Word 0x1800 ACK
29.102556916666668,SMBus,PEC 0x32 OK
29.104055333333335,SMBus,Write address 0x0B ACK Protocol=Read word
29.104205499999999,SMBus,Command BatteryStatus 0x16
29.104451500000000,SMBus,Read address 0x0B ACK Protocol=Read word
29.104578249999999,SMBus,BatteryStatus 0xE0C0 OVER CHARGED ALARM=1, TERMINATE CHARGE ALARM=1, OVER TEMP ALARM=0, TERMINATE DISCHARGE ALARM=0, REMAINING CAPACITY ALARM=0, REMAINING TIME ALARM=0, INITIALIZED=1, DISCHARGING=1, FULLY CHARGED=0, FULLY DISCHARGED=0, ErrorCode=OK
29.104947249999999,SMBus,Bad PEC 0xD1 should be 0xD3
29.106598333333334,SMBus,Write address 0x0B ACK Protocol=Read word
29.106748499999998,SMBus,Command ChargingCurrent 0x14
29.106956166666667,SMBus,Read address 0x0B ACK Protocol=Read word
29.107156666666668,SMBus,Word 0x0000 ACK
29.107439166666666,SMBus,PEC 0xF2 OK
29.108988000000000,SMBus,Write address 0x0B ACK Protocol=Read word
29.109138083333335,SMBus,Command ChargingVoltage 0x15
29.109345749999999,SMBus,Read address 0x0B ACK Protocol=Read word
29.109547916666667,SMBus,Word 0x3831 ACK
29.109879249999999,SMBus,PEC 0x22 OK
29.111761000000001,SMBus,Write address 0x0B ACK Protocol=Read word
29.111911166666665,SMBus,Command Temperature 0x08
29.112118833333334,SMBus,Read address 0x0B ACK Protocol=Read word
29.112245416666667,SMBus,Word 0x920B ACK
29.112589000000000,SMBus,PEC 0x87 OK
29.114150666666667,SMBus,Write address 0x0B ACK Protocol=Read word
29.114300833333335,SMBus,Command <error> 0x3B
29.114508416666666,SMBus,Read address 0x0B ACK Protocol=Read word
29.114635083333333,SMBus,Word 0x920B ACK
29.115067750000001,SMBus,PEC 0x14 OK
29.116668083333334,SMBus,Write address 0x0B ACK Protocol=Read word
29.116818250000001,SMBus,Command Voltage 0x09
29.117025916666666,SMBus,Read address 0x0B ACK Protocol=Read word
29.117210916666668,SMBus,Word 0x4F30 ACK
29.117560333333333,SMBus,PEC 0x63 OK
29.119057750000000,SMBus,Write address 0x0B ACK Protocol=Read word
29.119207916666667,SMBus,Command RemainingCapacity 0x0F
29.119415583333332,SMBus,Read address 0x0B ACK Protocol=Read word
29.119608833333334,SMBus,Word 0x7A15 ACK
29.119949750000000,SMBus,PEC 0x54 OK
29.121792416666668,SMBus,Write address 0x0B ACK Protocol=Read word
29.121942583333333,SMBus,Command FullChargeCapacity 0x10
29.122150250000001,SMBus,Read address 0x0B ACK Protocol=Read word
29.122276666666668,SMBus,Word 0xA815 ACK
29.122683750000000,SMBus,PEC 0x71 OK
29.124182083333334,SMBus,Write address 0x0B ACK Protocol=Read word
29.124370583333334,SMBus,Command Current 0x0A
29.124578249999999,SMBus,Read address 0x0B ACK Protocol=Read word
29.124704583333333,SMBus,Word 0xEAFC ACK
29.125112583333333,SMBus,PEC 0x6A OK
29.126725083333334,SMBus,Write address 0x0B ACK Protocol=Read word
29.126875250000001,SMBus,Command RunTimeToEmpty 0x11
29.127082916666666,SMBus,Read address 0x0B ACK Protocol=Read word
29.127209166666667,SMBus,Word 0x8101 ACK
29.127617166666667,SMBus,PEC 0x18 OK
29.129114749999999,SMBus,Write address 0x0B ACK Protocol=Read word
29.129264916666667,SMBus,Command AverageCurrent 0x0B
29.129472583333332,SMBus,Read address 0x0B ACK Protocol=Read word
29.129598416666667,SMBus,Word 0xE8FC ACK
29.130006500000000,SMBus,PEC 0x56 OK
29.131887750000001,SMBus,Write address 0x0B ACK Protocol=Read word
29.132037916666668,SMBus,Command AverageTimeToFull 0x13
29.132245583333333,SMBus,Read address 0x0B ACK Protocol=Read word
29.132371833333334,SMBus,Word 0xFFFF ACK
29.132728583333332,SMBus,PEC 0xB4 OK
29.134239083333334,SMBus,Write address 0x0B ACK Protocol=Read word
29.134389250000002,SMBus,Command AverageTimeToEmpty 0x12
29.134596833333333,SMBus,Read address 0x0B ACK Protocol=Read word
29.134723333333334,SMBus,Word 0x8101 ACK
29.135131250000001,SMBus,PEC 0x22 OK
29.136730916666668,SMBus,Write address 0x0B ACK Protocol=Read word
29.136881083333332,SMBus,Command CycleCount 0x17
29.137088750000000,SMBus,Read address 0x0B ACK Protocol=Read word
29.137215166666667,SMBus,Word 0xF100 ACK
29.137571749999999,SMBus,PEC 0xC9 OK
29.139120583333334,SMBus,Write address 0x0B ACK Protocol=Read word
29.139270750000001,SMBus,Command MaxError 0x0C
29.139478416666666,SMBus,Read address 0x0B ACK Protocol=Read word
29.139665999999998,SMBus,Word 0x0800 ACK
29.139961416666665,SMBus,PEC 0x8D OK
29.141893583333335,SMBus,Write address 0x0B ACK Protocol=Read word
29.142043749999999,SMBus,Command RelativeStateOfCharge 0x0D
29.142251416666667,SMBus,Read address 0x0B ACK Protocol=Read word
29.142442166666665,SMBus,Word 0x6300 ACK
29.142734416666666,SMBus,PEC 0xF9 OK
29.144244916666668,SMBus,Write address 0x0B ACK Protocol=Block write
29.144395083333333,SMBus,Command ManufacturerData 0x23
29.144602750000001,SMBus,Read address 0x0B ACK Protocol=Block write
29.144813083333332,SMBus,Byte count 0x0C
29.144989249999998,SMBus,Byte 0x42 ACK
29.145168250000001,SMBus,Byte 0x0A ACK
29.145347166666667,SMBus,Byte 0x05 ACK
29.145525333333332,SMBus,Byte 0x12 ACK
29.145648000000001,SMBus,Byte 0x86 ACK
29.145883333333334,SMBus,Byte 0x0F ACK
29.146005833333334,SMBus,Byte 0x86 ACK
29.146241333333332,SMBus,Byte 0x0F ACK
29.146363666666666,SMBus,Byte 0x86 ACK
29.146599333333334,SMBus,Byte 0x0F ACK
29.146721416666665,SMBus,Byte 0x86 ACK
29.146957333333333,SMBus,Byte 0x0F ACK
29.147133416666666,SMBus,PEC 0x1B OK
29.148679250000001,SMBus,Write address 0x0B ACK Protocol=Block write
29.148829333333332,SMBus,Command <error> 0x30
29.149037000000000,SMBus,Read address 0x0B ACK Protocol=Block write
29.149248833333335,SMBus,Byte count 0x0A
29.149422999999999,SMBus,Byte 0x09 ACK
29.149545583333332,SMBus,Byte 0xEB ACK
29.149781000000001,SMBus,Byte 0x1A ACK
29.149903416666668,SMBus,Byte 0xC1 ACK
29.150139083333332,SMBus,Byte 0x09 ACK
29.150318083333332,SMBus,Byte 0x15 ACK
29.150509499999998,SMBus,Byte 0x00 ACK
29.150688583333334,SMBus,Byte 0x00 ACK
29.150867583333333,SMBus,Byte 0x00 ACK
29.151046500000000,SMBus,Byte 0x00 ACK
29.151222666666666,SMBus,PEC 0x5A OK
