Time [s], Analyzer Name, Decoded Protocol Result
0.317642666666667,SMBus,Write address 0x0B ACK Protocol=Read word
0.317792833333333,SMBus,Command ManufacturerAccess 0x00
0.318000500000000,SMBus,Read address 0x0B ACK Protocol=Read word
0.318170583333333,SMBus,Word 0x1800 ACK
0.318521833333333,SMBus,PEC 0x32 OK
0.320032333333333,SMBus,Write address 0x0B ACK Protocol=Read word
0.320182500000000,SMBus,Command BatteryStatus 0x16
0.320428500000000,SMBus,Read address 0x0B ACK Protocol=Read word
0.320554750000000,SMBus,BatteryStatus 0xE0C0 OVER CHARGED ALARM=1, TERMINATE CHARGE ALARM=1, OVER TEMP ALARM=0, TERMINATE DISCHARGE ALARM=0, REMAINING CAPACITY ALARM=0, REMAINING TIME ALARM=0, INITIALIZED=1, DISCHARGING=1, FULLY CHARGED=0, FULLY DISCHARGED=0, ErrorCode=OK
0.320924250000000,SMBus,PEC 0xD3 OK
0.322588083333333,SMBus,Write address 0x0B ACK Protocol=Read word
0.322738250000000,SMBus,Command ChargingCurrent 0x14
0.322945916666667,SMBus,Read address 0x0B ACK Protocol=Read word
0.323146916666667,SMBus,Word 0x0000 ACK
0.323428916666667,SMBus,PEC 0xF2 OK
0.324977750000000,SMBus,Write address 0x0B ACK Protocol=Read word
0.325127916666667,SMBus,Command ChargingVoltage 0x15
0.325335583333333,SMBus,Read address 0x0B ACK Protocol=Read word
0.325537583333333,SMBus,Word 0x3831 ACK
0.325869916666667,SMBus,PEC 0x22 OK
0.327712416666667,SMBus,Write address 0x0B ACK Protocol=Read word
0.327862583333333,SMBus,Command Temperature 0x08
0.328070250000000,SMBus,Read address 0x0B ACK Protocol=Read word
0.328196500000000,SMBus,Word 0x920B ACK
0.328553250000000,SMBus,PEC 0x87 OK
0.330102083333333,SMBus,Write address 0x0B ACK Protocol=Read word
0.330252250000000,SMBus,Command <error> 0x3B
0.330459916666667,SMBus,Read address 0x0B ACK Protocol=Read word
0.330586500000000,SMBus,Word 0x920B ACK
0.331031750000000,SMBus,PEC 0x14 OK
0.332645083333333,SMBus,Write address 0x0B ACK Protocol=Read word
0.332795250000000,SMBus,Command Voltage 0x09
0.333002916666667,SMBus,Read address 0x0B ACK Protocol=Read word
0.333187333333333,SMBus,Word 0x5B30 ACK
0.333524416666667,SMBus,PEC 0x60 OK
0.335034750000000,SMBus,Write address 0x0B ACK Protocol=Read word
0.335184916666667,SMBus,Command RemainingCapacity 0x0F
0.335392583333333,SMBus,Read address 0x0B ACK Protocol=Read word
0.335518416666667,SMBus,Word 0x8015 ACK
0.335875583333333,SMBus,PEC 0xC2 OK
0.337769416666667,SMBus,Write address 0x0B ACK Protocol=Read word
0.337919583333333,SMBus,Command FullChargeCapacity 0x10
0.338127250000000,SMBus,Read address 0x0B ACK Protocol=Read word
0.338253916666667,SMBus,Word 0xA815 ACK
0.338673583333333,SMBus,PEC 0x71 OK
0.340184666666667,SMBus,Write address 0x0B ACK Protocol=Read word
0.340334833333333,SMBus,Command Current 0x0A
0.340542500000000,SMBus,Read address 0x0B ACK Protocol=Read word
0.340668583333333,SMBus,Word 0xE3FC ACK
0.341012666666667,SMBus,PEC 0xD7 OK
0.342676583333333,SMBus,Write address 0x0B ACK Protocol=Read word
0.342826666666667,SMBus,Command RunTimeToEmpty 0x11
0.343034333333333,SMBus,Read address 0x0B ACK Protocol=Read word
0.343230416666667,SMBus,Word 0x7F01 ACK
0.343517333333333,SMBus,PEC 0xDA OK
0.345066166666667,SMBus,Write address 0x0B ACK Protocol=Read word
0.345216333333333,SMBus,Command AverageCurrent 0x0B
0.345424000000000,SMBus,Read address 0x0B ACK Protocol=Read word
0.345549833333333,SMBus,Word 0xE8FC ACK
0.345945583333333,SMBus,PEC 0x56 OK
0.347813666666667,SMBus,Write address 0x0B ACK Protocol=Read word
0.347963833333333,SMBus,Command AverageTimeToFull 0x13
0.348171500000000,SMBus,Read address 0x0B ACK Protocol=Read word
0.348297666666667,SMBus,Word 0xFFFF ACK
0.348654500000000,SMBus,PEC 0xB4 OK
0.350177750000000,SMBus,Write address 0x0B ACK Protocol=Read word
0.350327916666667,SMBus,Command AverageTimeToEmpty 0x12
0.350535583333333,SMBus,Read address 0x0B ACK Protocol=Read word
0.350733750000000,SMBus,Word 0x7F01 ACK
0.351018583333333,SMBus,PEC 0xE0 OK
0.352669666666667,SMBus,Write address 0x0B ACK Protocol=Read word
0.352819833333333,SMBus,Command CycleCount 0x17
0.353027500000000,SMBus,Read address 0x0B ACK Protocol=Read word
0.353153500000000,SMBus,Word 0xF100 ACK
0.353510500000000,SMBus,PEC 0xC9 OK
0.355059333333333,SMBus,Write address 0x0B ACK Protocol=Read word
0.355209416666667,SMBus,Command MaxError 0x0C
0.355417083333333,SMBus,Read address 0x0B ACK Protocol=Read word
0.355604833333333,SMBus,Word 0x0800 ACK
0.355887333333333,SMBus,PEC 0x8D OK
0.357800416666667,SMBus,Write address 0x0B ACK Protocol=Read word
0.357969666666667,SMBus,Command RelativeStateOfCharge 0x0D
0.358177333333333,SMBus,Read address 0x0B ACK Protocol=Read word
0.358367250000000,SMBus,Word 0x6300 ACK
0.358647583333333,SMBus,PEC 0xF9 OK
0.360183666666667,SMBus,Write address 0x0B ACK Protocol=Block write
0.360333833333333,SMBus,Command ManufacturerData 0x23
0.360541500000000,SMBus,Read address 0x0B ACK Protocol=Block write
0.360751416666667,SMBus,Byte count 0x0C
0.360927583333333,SMBus,Byte 0x42 ACK
0.361106583333333,SMBus,Byte 0x0A ACK
0.361285583333333,SMBus,Byte 0x05 ACK
0.361464583333333,SMBus,Byte 0x12 ACK
0.361586750000000,SMBus,Byte 0x86 ACK
0.361822500000000,SMBus,Byte 0x0F ACK
0.361944500000000,SMBus,Byte 0x86 ACK
0.362180500000000,SMBus,Byte 0x0F ACK
0.362302333333333,SMBus,Byte 0x86 ACK
0.362537500000000,SMBus,Byte 0x0F ACK
0.362660166666667,SMBus,Byte 0x86 ACK
0.362895500000000,SMBus,Byte 0x0F ACK
0.363071666666667,SMBus,PEC 0x1B OK
0.364630666666667,SMBus,Write address 0x0B ACK Protocol=Block write
0.364819166666667,SMBus,Command <error> 0x30
0.365026833333333,SMBus,Read address 0x0B ACK Protocol=Block write
0.365238500000000,SMBus,Byte count 0x0A
0.365412750000000,SMBus,Byte 0x09 ACK
0.365535416666667,SMBus,Byte 0xEB ACK
0.365770750000000,SMBus,Byte 0x1A ACK
0.365893250000000,SMBus,Byte 0xC1 ACK
0.366128750000000,SMBus,Byte 0x09 ACK
0.366307750000000,SMBus,Byte 0x15 ACK
0.366499083333333,SMBus,Byte 0x00 ACK
0.366678000000000,SMBus,Byte 0x00 ACK
0.366857083333333,SMBus,Byte 0x00 ACK
0.367036000000000,SMBus,Byte 0x00 ACK
0.367212166666667,SMBus,PEC 0x5A OK
2.371081583333333,SMBus,Write address 0x0B ACK Protocol=Read word
2.371231750000000,SMBus,Command ManufacturerAccess 0x00
2.371439416666667,SMBus,Read address 0x0B ACK Protocol=Read word
2.371609666666667,SMBus,Word 0x1800 ACK
2.371973333333333,SMBus,PEC 0x32 OK
2.373484083333333,SMBus,Write address 0x0B ACK Protocol=Read word
2.373634166666667,SMBus,Command BatteryStatus 0x16
2.373841833333334,SMBus,Read address 0x0B ACK Protocol=Read word
2.373968083333333,SMBus,BatteryStatus 0xE0C0 OVER CHARGED ALARM=1, TERMINATE CHARGE ALARM=1, OVER TEMP ALARM=0, TERMINATE DISCHARGE ALARM=0, REMAINING CAPACITY ALARM=0, REMAINING TIME ALARM=0, INITIALIZED=1, DISCHARGING=1, FULLY CHARGED=0, FULLY DISCHARGED=0, ErrorCode=OK
2.374324833333334,SMBus,PEC 0xD3 OK
2.375886500000000,SMBus,Write address 0x0B ACK Protocol=Read word
2.376036666666667,SMBus,Command ChargingCurrent 0x14
2.376263500000000,SMBus,Read address 0x0B ACK Protocol=Read word
2.376483666666667,SMBus,Word 0x0000 ACK
2.376765666666667,SMBus,PEC 0xF2 OK
2.378327250000000,SMBus,Write address 0x0B ACK Protocol=Read word
2.378477416666667,SMBus,Command ChargingVoltage 0x15
2.378685083333334,SMBus,Read address 0x0B ACK Protocol=Read word
2.378887166666667,SMBus,Word 0x3831 ACK
2.379219333333333,SMBus,PEC 0x22 OK
2.380704166666667,SMBus,Read address 0x0B ACK
2.380817583333333,SMBus,Bad PEC 0x04 should be 0x65
2.381061916666666,SMBus,Read address 0x0B ACK
2.381188166666667,SMBus,Byte 0x92 ACK
2.381421000000000,SMBus,Byte 0x0B ACK
2.381532166666667,SMBus,Bad PEC 0x87 should be 0x4E
2.383106583333333,SMBus,Write address 0x0B ACK Protocol=Read word
2.383295083333334,SMBus,Command <error> 0x3B
2.383502666666667,SMBus,Read address 0x0B ACK Protocol=Read word
2.383628750000000,SMBus,Word 0x920B ACK
2.384062416666667,SMBus,PEC 0x14 OK
2.385624000000000,SMBus,Write address 0x0B ACK Protocol=Read word
2.385774166666667,SMBus,Command Voltage 0x09
2.385981833333333,SMBus,Read address 0x0B ACK Protocol=Read word
2.386166416666667,SMBus,Word 0x5930 ACK
2.386504416666666,SMBus,PEC 0x4A OK
2.388000916666666,SMBus,Write address 0x0B ACK Protocol=Read word
2.388151000000000,SMBus,Command RemainingCapacity 0x0F
2.388358666666667,SMBus,Read address 0x0B ACK Protocol=Read word
2.388485250000000,SMBus,Word 0x8015 ACK
2.388828916666667,SMBus,PEC 0xC2 OK
2.390377750000000,SMBus,Write address 0x0B ACK Protocol=Read word
2.390527916666667,SMBus,Command FullChargeCapacity 0x10
2.390754750000000,SMBus,Read address 0x0B ACK Protocol=Read word
2.390899916666667,SMBus,Word 0xA815 ACK
2.391308000000000,SMBus,PEC 0x71 OK
2.392831333333334,SMBus,Write address 0x0B ACK Protocol=Read word
2.392981416666667,SMBus,Command Current 0x0A
2.393189083333333,SMBus,Read address 0x0B ACK Protocol=Read word
2.393315333333333,SMBus,Word 0xEAFC ACK
2.393710000000000,SMBus,PEC 0x6A OK
2.395514833333333,SMBus,Write address 0x0B ACK Protocol=Read word
2.395665000000000,SMBus,Command RunTimeToEmpty 0x11
2.395872666666667,SMBus,Read address 0x0B ACK Protocol=Read word
2.395999166666666,SMBus,Word 0x8301 ACK
2.396406333333333,SMBus,PEC 0x32 OK
2.397930083333333,SMBus,Write address 0x0B ACK Protocol=Read word
2.398080250000000,SMBus,Command AverageCurrent 0x0B
2.398313416666667,SMBus,Read address 0x0B ACK Protocol=Read word
2.398439416666667,SMBus,Word 0xE9FC ACK
2.398835083333333,SMBus,PEC 0x43 OK
2.400332500000000,SMBus,Write address 0x0B ACK Protocol=Read word
2.400482666666667,SMBus,Command AverageTimeToFull 0x13
2.400690333333333,SMBus,Read address 0x0B ACK Protocol=Read word
2.400816583333333,SMBus,Word 0xFFFF ACK
2.401173333333333,SMBus,PEC 0xB4 OK
2.402728583333333,SMBus,Write address 0x0B ACK Protocol=Read word
2.402897916666667,SMBus,Command AverageTimeToEmpty 0x12
2.403105500000000,SMBus,Read address 0x0B ACK Protocol=Read word
2.403231916666666,SMBus,Word 0x8301 ACK
2.403639083333333,SMBus,PEC 0x08 OK
2.405508000000000,SMBus,Write address 0x0B ACK Protocol=Read word
2.405658083333333,SMBus,Command CycleCount 0x17
2.405865750000000,SMBus,Read address 0x0B ACK Protocol=Read word
2.405992000000000,SMBus,Word 0xF100 ACK
2.406361583333333,SMBus,PEC 0xC9 OK
2.407910416666667,SMBus,Write address 0x0B ACK Protocol=Read word
2.408060583333334,SMBus,Command MaxError 0x0C
2.408293750000000,SMBus,Read address 0x0B ACK Protocol=Read word
2.408481750000000,SMBus,Word 0x0800 ACK
2.408764000000000,SMBus,PEC 0x8D OK
2.410325583333333,SMBus,Write address 0x0B ACK Protocol=Read word
2.410475750000000,SMBus,Command RelativeStateOfCharge 0x0D
2.410683416666667,SMBus,Read address 0x0B ACK Protocol=Read word
2.410873416666667,SMBus,Word 0x6300 ACK
2.411153666666667,SMBus,PEC 0xF9 OK
2.412664166666667,SMBus,Write address 0x0B ACK Protocol=Block write
2.412814333333333,SMBus,Command ManufacturerData 0x23
2.413022000000000,SMBus,Read address 0x0B ACK Protocol=Block write
2.413232583333333,SMBus,Byte count 0x0C
2.413408666666667,SMBus,Byte 0x42 ACK
2.413586666666667,SMBus,Byte 0x0A ACK
2.413765666666666,SMBus,Byte 0x05 ACK
2.413944750000000,SMBus,Byte 0x12 ACK
2.414067250000000,SMBus,Byte 0x86 ACK
2.414302750000000,SMBus,Byte 0x0F ACK
2.414425083333333,SMBus,Byte 0x86 ACK
2.414660750000000,SMBus,Byte 0x0F ACK
2.414782833333333,SMBus,Byte 0x86 ACK
2.415018833333333,SMBus,Byte 0x0F ACK
2.415140666666667,SMBus,Byte 0x86 ACK
2.415375833333333,SMBus,Byte 0x0F ACK
2.415552000000000,SMBus,PEC 0x1B OK
2.417098416666667,SMBus,Write address 0x0B ACK Protocol=Block write
2.417248583333333,SMBus,Command <error> 0x30
2.417456250000000,SMBus,Read address 0x0B ACK Protocol=Block write
2.417667250000000,SMBus,Byte count 0x0A
2.417842416666667,SMBus,Byte 0x09 ACK
2.417964833333333,SMBus,Byte 0xEB ACK
2.418200333333334,SMBus,Byte 0x1A ACK
2.418322583333333,SMBus,Byte 0xC1 ACK
2.418558333333333,SMBus,Byte 0x09 ACK
2.418737333333334,SMBus,Byte 0x15 ACK
2.418928666666667,SMBus,Byte 0x00 ACK
2.419107666666667,SMBus,Byte 0x00 ACK
2.419286583333333,SMBus,Byte 0x00 ACK
2.419465583333333,SMBus,Byte 0x00 ACK
2.419641666666667,SMBus,PEC 0x5A OK
4.423518166666667,SMBus,Write address 0x0B ACK Protocol=Read word
4.423668333333334,SMBus,Command ManufacturerAccess 0x00
4.423876000000000,SMBus,Read address 0x0B ACK Protocol=Read word
4.424046166666667,SMBus,Word 0x1800 ACK
4.424397583333334,SMBus,PEC 0x32 OK
4.425920583333333,SMBus,Write address 0x0B ACK Protocol=Read word
4.426070750000000,SMBus,Command BatteryStatus 0x16
4.426278416666666,SMBus,Read address 0x0B ACK Protocol=Read word
4.426404333333333,SMBus,BatteryStatus 0xE0C0 OVER CHARGED ALARM=1, TERMINATE CHARGE ALARM=1, OVER TEMP ALARM=0, TERMINATE DISCHARGE ALARM=0, REMAINING CAPACITY ALARM=0, REMAINING TIME ALARM=0, INITIALIZED=1, DISCHARGING=1, FULLY CHARGED=0, FULLY DISCHARGED=0, ErrorCode=OK
4.426761416666666,SMBus,PEC 0xD3 OK
4.428323000000000,SMBus,Write address 0x0B ACK Protocol=Read word
4.428473166666667,SMBus,Command ChargingCurrent 0x14
4.428700000000000,SMBus,Read address 0x0B ACK Protocol=Read word
4.428919750000000,SMBus,Word 0x0000 ACK
4.429202166666666,SMBus,PEC 0xF2 OK
4.430751000000000,SMBus,Write address 0x0B ACK Protocol=Read word
4.430901166666667,SMBus,Command ChargingVoltage 0x15
4.431108833333333,SMBus,Read address 0x0B ACK Protocol=Read word
4.431310333333333,SMBus,Word 0x3831 ACK
4.431642583333334,SMBus,PEC 0x22 OK
4.433102333333333,SMBus,Write address 0x0B ACK Protocol=Read word
4.433252500000000,SMBus,Command Temperature 0x08
4.433460166666666,SMBus,Read address 0x0B ACK Protocol=Read word
4.433586333333333,SMBus,Word 0x920B ACK
4.433930333333334,SMBus,PEC 0x87 OK
4.435479166666667,SMBus,Write address 0x0B ACK Protocol=Read word
4.435629333333333,SMBus,Command <error> 0x3B
4.435837000000000,SMBus,Read address 0x0B ACK Protocol=Read word
4.435963750000000,SMBus,Word 0x920B ACK
4.436396583333333,SMBus,PEC 0x14 OK
4.437920000000000,SMBus,Write address 0x0B ACK Protocol=Read word
4.438070083333334,SMBus,Command Voltage 0x09
4.438277750000000,SMBus,Read address 0x0B ACK Protocol=Read word
4.438462500000000,SMBus,Word 0x5D30 ACK
4.438798666666667,SMBus,PEC 0x1E OK
4.440296833333333,SMBus,Write address 0x0B ACK Protocol=Read word
4.440447000000000,SMBus,Command RemainingCapacity 0x0F
4.440654666666667,SMBus,Read address 0x0B ACK Protocol=Read word
4.440848083333333,SMBus,Word 0x7F15 ACK
4.441188916666666,SMBus,PEC 0x15 OK
4.442993166666667,SMBus,Write address 0x0B ACK Protocol=Read word
4.443143333333333,SMBus,Command FullChargeCapacity 0x10
4.443351000000000,SMBus,Read address 0x0B ACK Protocol=Read word
4.443477000000000,SMBus,Word 0xA815 ACK
4.443885083333333,SMBus,PEC 0x71 OK
4.445408416666667,SMBus,Write address 0x0B ACK Protocol=Read word
4.445558583333334,SMBus,Command Current 0x0A
4.445766250000000,SMBus,Read address 0x0B ACK Protocol=Read word
4.445892416666666,SMBus,Word 0xF2FC ACK
4.446236416666666,SMBus,PEC 0x95 OK
4.447810833333333,SMBus,Write address 0x0B ACK Protocol=Read word
4.447961000000000,SMBus,Command RunTimeToEmpty 0x11
4.448187833333333,SMBus,Read address 0x0B ACK Protocol=Read word
4.448332916666667,SMBus,Word 0x8601 ACK
4.448741000000000,SMBus,PEC 0x73 OK
4.450264416666666,SMBus,Write address 0x0B ACK Protocol=Read word
4.450414500000000,SMBus,Command AverageCurrent 0x0B
4.450622166666666,SMBus,Read address 0x0B ACK Protocol=Read word
4.450748416666666,SMBus,Word 0xF0FC ACK
4.451092416666667,SMBus,PEC 0xA9 OK
4.452960750000000,SMBus,Write address 0x0B ACK Protocol=Read word
4.453110916666667,SMBus,Command AverageTimeToFull 0x13
4.453318583333333,SMBus,Read address 0x0B ACK Protocol=Read word
4.453444833333333,SMBus,Word 0xFFFF ACK
4.453814333333334,SMBus,PEC 0xB4 OK
4.455375916666667,SMBus,Write address 0x0B ACK Protocol=Read word
4.455526083333333,SMBus,Command AverageTimeToEmpty 0x12
4.455759333333333,SMBus,Read address 0x0B ACK Protocol=Read word
4.455886000000000,SMBus,Word 0x8601 ACK
4.456293166666667,SMBus,PEC 0x49 OK
4.457816750000000,SMBus,Write address 0x0B ACK Protocol=Read word
4.457966833333334,SMBus,Command CycleCount 0x17
4.458174500000000,SMBus,Read address 0x0B NACK Protocol=Read word
4.458287916666666,SMBus,Word 0x7800 NACK
4.458647333333333,SMBus,Bad PEC 0x64 should be 0xC2
4.460231916666666,SMBus,Write address 0x0B ACK Protocol=Read word
4.460382083333333,SMBus,Command MaxError 0x0C
4.460589750000000,SMBus,Read address 0x0B ACK Protocol=Read word
4.460777333333334,SMBus,Word 0x0800 ACK
4.461060000000000,SMBus,PEC 0x8D OK
4.462966583333333,SMBus,Write address 0x0B ACK Protocol=Read word
4.463116750000000,SMBus,Command RelativeStateOfCharge 0x0D
4.463324416666667,SMBus,Read address 0x0B ACK Protocol=Read word
4.463514500000000,SMBus,Word 0x6300 ACK
4.463807416666667,SMBus,PEC 0xF9 OK
4.465381833333334,SMBus,Write address 0x0B ACK Protocol=Block write
4.465532000000000,SMBus,Command ManufacturerData 0x23
4.465739666666667,SMBus,Read address 0x0B ACK Protocol=Block write
4.465949750000000,SMBus,Byte count 0x0C
4.466125916666667,SMBus,Byte 0x42 ACK
4.466304916666667,SMBus,Byte 0x0A ACK
4.466483833333333,SMBus,Byte 0x05 ACK
4.466662750000000,SMBus,Byte 0x12 ACK
4.466784916666667,SMBus,Byte 0x86 ACK
4.467020666666667,SMBus,Byte 0x0F ACK
4.467142750000000,SMBus,Byte 0x86 ACK
4.467378583333334,SMBus,Byte 0x0F ACK
4.467500500000000,SMBus,Byte 0x86 ACK
4.467736500000000,SMBus,Byte 0x0F ACK
4.467858333333333,SMBus,Byte 0x86 ACK
4.468093416666667,SMBus,Byte 0x0F ACK
4.468269583333333,SMBus,PEC 0x1B OK
4.469841666666666,SMBus,Write address 0x0B ACK Protocol=Block write
4.469991833333333,SMBus,Command <error> 0x30
4.470237833333333,SMBus,Read address 0x0B ACK Protocol=Block write
4.470449000000000,SMBus,Byte count 0x0A
4.470624166666667,SMBus,Byte 0x09 ACK
4.470746333333333,SMBus,Byte 0xEB ACK
4.470982083333333,SMBus,Byte 0x1A ACK
4.471104166666667,SMBus,Byte 0xC1 ACK
4.471352500000000,SMBus,Byte 0x09 ACK
4.471531500000000,SMBus,Byte 0x15 ACK
4.471710416666666,SMBus,Byte 0x00 ACK
4.471889416666667,SMBus,Byte 0x00 ACK
4.472068416666667,SMBus,Byte 0x00 ACK
4.472247416666667,SMBus,Byte 0x00 ACK
4.472422583333334,SMBus,PEC 0x5A OK
6.475955250000000,SMBus,Write address 0x0B ACK Protocol=Read word
6.476105416666667,SMBus,Command ManufacturerAccess 0x00
6.476313083333333,SMBus,Read address 0x0B ACK Protocol=Read word
6.476483166666666,SMBus,Word 0x1800 ACK
6.476846833333333,SMBus,PEC 0x32 OK
6.478370416666666,SMBus,Write address 0x0B ACK Protocol=Read word
6.478520583333333,SMBus,Command BatteryStatus 0x16
6.478728250000000,SMBus,Read address 0x0B ACK Protocol=Read word
6.478854833333333,SMBus,BatteryStatus 0xE0C0 OVER CHARGED ALARM=1, TERMINATE CHARGE ALARM=1, OVER TEMP ALARM=0, TERMINATE DISCHARGE ALARM=0, REMAINING CAPACITY ALARM=0, REMAINING TIME ALARM=0, INITIALIZED=1, DISCHARGING=1, FULLY CHARGED=0, FULLY DISCHARGED=0, ErrorCode=OK
6.479211250000000,SMBus,PEC 0xD3 OK
6.480798416666667,SMBus,Write address 0x0B ACK Protocol=Read word
6.480948583333333,SMBus,Command ChargingCurrent 0x14
6.481156250000000,SMBus,Read address 0x0B ACK Protocol=Read word
6.481357166666666,SMBus,Word 0x0000 ACK
6.481639250000000,SMBus,PEC 0xF2 OK
6.483213666666667,SMBus,Write address 0x0B ACK Protocol=Read word
6.483363833333334,SMBus,Command ChargingVoltage 0x15
6.483571500000000,SMBus,Read address 0x0B ACK Protocol=Read word
6.483773250000000,SMBus,Word 0x3831 ACK
6.484106416666667,SMBus,PEC 0x22 OK
6.485603333333334,SMBus,Write address 0x0B ACK Protocol=Read word
6.485753416666666,SMBus,Command Temperature 0x08
6.485961083333334,SMBus,Read address 0x0B ACK Protocol=Read word
6.486087166666667,SMBus,Word 0x920B ACK
6.486431333333333,SMBus,PEC 0x87 OK
6.487993000000000,SMBus,Write address 0x0B ACK Protocol=Read word
6.488143083333333,SMBus,Command <error> 0x3B
6.488350750000000,SMBus,Read address 0x0B ACK Protocol=Read word
6.488476666666666,SMBus,Word 0x920B ACK
6.488910500000000,SMBus,PEC 0x14 OK
6.490484833333333,SMBus,Write address 0x0B ACK Protocol=Read word
6.490635000000000,SMBus,Command Voltage 0x09
6.490842666666667,SMBus,Read address 0x0B ACK Protocol=Read word
