Time [s], Analyzer Name, Decoded Protocol Result
0.154305333333333,SMBus,Write address 0x0B NACK Protocol=Quick Command
0.284147333333333,SMBus,Write address 0x0B ACK Protocol=Read byte
0.284297500000000,SMBus,Command SpecificationInfo 0x1A
0.289821333333333,SMBus,Read address 0x0B ACK Protocol=Read byte
0.292696000000000,SMBus,Byte 0x31 ACK
0.295559250000000,SMBus,Bad PEC 0x00 should be 0x9D
0.345986833333333,SMBus,Write address 0x0B ACK Protocol=Read word
0.346137000000000,SMBus,Command BatteryMode 0x03
0.346344666666667,SMBus,Read address 0x0B ACK Protocol=Read word
0.346471416666667,SMBus,BatteryMode 0x8000 INTERNAL_CHARGE_CONTROLLER=0, PRIMARY_BATTERY_SUPPORT=0, CONDITION_FLAG=0, CHARGE_CONTROLLER_ENABLED=0, PRIMARY_BATTERY=0, ALARM_MODE=0, CHARGER_MODE=0, CAPACITY_MODE=1
0.346865916666667,SMBus,PEC 0x41 OK
0.348210416666667,SMBus,Write address 0x0B ACK Protocol=Write word
0.348360583333333,SMBus,Command BatteryMode 0x03
0.348477333333333,SMBus,BatteryMode 0x8480 INTERNAL_CHARGE_CONTROLLER=0, PRIMARY_BATTERY_SUPPORT=0, CONDITION_FLAG=1, CHARGE_CONTROLLER_ENABLED=0, PRIMARY_BATTERY=0, ALARM_MODE=0, CHARGER_MODE=0, CAPACITY_MODE=1
0.348758166666667,SMBus,PEC 0xC5 OK
0.349897333333333,SMBus,Write address 0x0B ACK Protocol=Read word
0.350047500000000,SMBus,Command BatteryMode 0x03
0.350255166666667,SMBus,Read address 0x0B ACK Protocol=Read word
0.350381666666667,SMBus,BatteryMode 0x8480 INTERNAL_CHARGE_CONTROLLER=0, PRIMARY_BATTERY_SUPPORT=0, CONDITION_FLAG=1, CHARGE_CONTROLLER_ENABLED=0, PRIMARY_BATTERY=0, ALARM_MODE=0, CHARGER_MODE=0, CAPACITY_MODE=1
0.350712583333333,SMBus,PEC 0x9C OK
0.351890916666667,SMBus,Write address 0x0B ACK Protocol=Read word
0.352041083333333,SMBus,Command DesignCapacity 0x18
0.352248750000000,SMBus,Read address 0x0B ACK Protocol=Read word
0.352375416666667,SMBus,Word 0xC819 ACK
0.352795750000000,SMBus,PEC 0x10 OK
0.353935583333333,SMBus,Write address 0x0B ACK Protocol=Read word
0.354085750000000,SMBus,Command DesignVoltage 0x19
0.354293416666667,SMBus,Read address 0x0B ACK Protocol=Read word
0.354501250000000,SMBus,Word 0x302A ACK
0.354840083333333,SMBus,PEC 0x23 OK
0.355993083333333,SMBus,Write address 0x0B ACK Protocol=Read word
0.356143250000000,SMBus,Command ManufactureDate 0x1B
0.356350916666667,SMBus,Read address 0x0B ACK Protocol=Read word
0.356561416666667,SMBus,ManufactureDate 0x2A4F 2/15/2001
0.356846750000000,SMBus,PEC 0xE6 OK
0.358561750000000,SMBus,Write address 0x0B ACK Protocol=Read word
0.358711916666667,SMBus,Command SerialNumber 0x1C
0.358919583333333,SMBus,Read address 0x0B ACK Protocol=Read word
0.359045583333333,SMBus,Word 0xFF04 ACK
0.359415416666667,SMBus,PEC 0x89 OK
0.360606500000000,SMBus,Write address 0x0B ACK Protocol=Block write
0.360756583333333,SMBus,Command ManufacturerName 0x20
0.360964250000000,SMBus,Read address 0x0B ACK Protocol=Block write
0.361173583333333,SMBus,Byte count 0x04
0.361350583333333,SMBus,Byte 0x53 ACK
0.361529500000000,SMBus,Byte 0x4F ACK
0.361708500000000,SMBus,Byte 0x4E ACK
0.361887416666667,SMBus,Byte 0x59 ACK
0.362063500000000,SMBus,PEC 0x30 OK
0.363200666666667,SMBus,Write address 0x0B ACK Protocol=Block write
0.363350833333333,SMBus,Command DeviceName 0x21
0.363558500000000,SMBus,Read address 0x0B ACK Protocol=Block write
0.363770166666667,SMBus,Byte count 0x0B
0.363944333333333,SMBus,Byte 0x4C ACK
0.364124166666667,SMBus,Byte 0x4E ACK
0.364302166666667,SMBus,Byte 0x56 ACK
0.364481083333333,SMBus,Byte 0x2D ACK
0.364659916666667,SMBus,Byte 0x34 ACK
0.364839833333333,SMBus,Byte 0x31 ACK
0.364951500000000,SMBus,Byte 0x2A ACK
0.365130416666667,SMBus,Byte 0x1A ACK
0.365309333333333,SMBus,Byte 0x1B NACK
0.365485166666667,SMBus,Byte 0x1B ACK
0.365667166666667,SMBus,Byte 0x1A NACK
0.365843000000000,SMBus,Bad PEC 0x37 should be 0x53
0.367341250000000,SMBus,Write address 0x0B ACK Protocol=Block write
0.367491333333333,SMBus,Command DeviceChemistry 0x22
0.367699000000000,SMBus,Read address 0x0B ACK Protocol=Block write
0.367909916666667,SMBus,Byte count 0x04
0.368085000000000,SMBus,Byte 0x4C ACK
0.368263916666667,SMBus,Byte 0x49 ACK
0.368442750000000,SMBus,Byte 0x4F ACK
0.368621666666667,SMBus,Byte 0x4E ACK
0.368797666666667,SMBus,PEC 0x31 OK
0.370024916666667,SMBus,Write address 0x0B ACK
0.848180083333333,SMBus,Write address 0x0B ACK
0.848330250000000,SMBus,Bad PEC 0x1A should be 0x62
0.848537916666667,SMBus,Read address 0x0B ACK
0.848747666666667,SMBus,Byte 0x31 ACK
0.848921833333333,SMBus,Bad PEC 0x00 should be 0xAB
0.861164000000000,SMBus,Write address 0x0B ACK Protocol=Read word
0.861314166666667,SMBus,Command BatteryMode 0x03
0.861521833333333,SMBus,Read address 0x0B ACK Protocol=Read word
0.861647750000000,SMBus,BatteryMode 0x8480 INTERNAL_CHARGE_CONTROLLER=0, PRIMARY_BATTERY_SUPPORT=0, CONDITION_FLAG=1, CHARGE_CONTROLLER_ENABLED=0, PRIMARY_BATTERY=0, ALARM_MODE=0, CHARGER_MODE=0, CAPACITY_MODE=1
0.862004833333333,SMBus,PEC 0x9C OK
0.874173500000000,SMBus,Write address 0x0B ACK Protocol=Write word
0.874361916666667,SMBus,Command BatteryMode 0x03
0.874478833333333,SMBus,BatteryMode 0x8480 INTERNAL_CHARGE_CONTROLLER=0, PRIMARY_BATTERY_SUPPORT=0, CONDITION_FLAG=1, CHARGE_CONTROLLER_ENABLED=0, PRIMARY_BATTERY=0, ALARM_MODE=0, CHARGER_MODE=0, CAPACITY_MODE=1
0.874759500000000,SMBus,PEC 0xC5 OK
0.887144583333333,SMBus,Write address 0x0B ACK Protocol=Read word
0.887294750000000,SMBus,Command BatteryMode 0x03
0.887502416666667,SMBus,Read address 0x0B ACK Protocol=Read word
0.887628916666667,SMBus,BatteryMode 0x8480 INTERNAL_CHARGE_CONTROLLER=0, PRIMARY_BATTERY_SUPPORT=0, CONDITION_FLAG=1, CHARGE_CONTROLLER_ENABLED=0, PRIMARY_BATTERY=0, ALARM_MODE=0, CHARGER_MODE=0, CAPACITY_MODE=1
0.887972666666667,SMBus,PEC 0x9C OK
0.900473583333333,SMBus,Write address 0x0B ACK Protocol=Read word
0.900623750000000,SMBus,Command DesignCapacity 0x18
0.900831416666667,SMBus,Read address 0x0B ACK Protocol=Read word
0.900957416666667,SMBus,Word 0xC819 ACK
0.901378583333333,SMBus,PEC 0x10 OK
0.913112416666667,SMBus,Write address 0x0B ACK Protocol=Read word
0.913262583333333,SMBus,Command DesignVoltage 0x19
0.913470250000000,SMBus,Read address 0x0B ACK Protocol=Read word
0.913678250000000,SMBus,Word 0x302A ACK
0.914017083333333,SMBus,PEC 0x23 OK
0.927093166666667,SMBus,Write address 0x0B ACK Protocol=Read word
0.927243333333333,SMBus,Command ManufactureDate 0x1B
0.927451000000000,SMBus,Read address 0x0B ACK Protocol=Read word
0.927661333333333,SMBus,ManufactureDate 0x2A4F 2/15/2001
0.927946750000000,SMBus,PEC 0xE6 OK
0.940383750000000,SMBus,Read address 0x0B ACK
0.940496500000000,SMBus,Bad PEC 0x0E should be 0x65
0.940760750000000,SMBus,Read address 0x0B ACK
0.940906083333333,SMBus,Byte 0xFF ACK
0.941164500000000,SMBus,Byte 0x04 ACK
0.941275750000000,SMBus,Bad PEC 0x89 should be 0x7F
0.954057750000000,SMBus,Write address 0x0B ACK Protocol=Block write
0.954207916666667,SMBus,Command ManufacturerName 0x20
0.954415583333333,SMBus,Read address 0x0B ACK Protocol=Block write
0.954625416666667,SMBus,Byte count 0x04
0.954801500000000,SMBus,Byte 0x53 ACK
0.954980333333333,SMBus,Byte 0x4F ACK
0.955159250000000,SMBus,Byte 0x4E ACK
0.955338166666667,SMBus,Byte 0x59 ACK
0.955515166666667,SMBus,PEC 0x30 OK
0.967028916666667,SMBus,Write address 0x0B ACK Protocol=Block write
0.967179083333333,SMBus,Command DeviceName 0x21
0.967386750000000,SMBus,Read address 0x0B ACK Protocol=Block write
0.967597750000000,SMBus,Byte count 0x0B
0.967772833333333,SMBus,Byte 0x4C ACK
0.967951666666667,SMBus,Byte 0x4E ACK
0.968130666666667,SMBus,Byte 0x56 ACK
0.968309500000000,SMBus,Byte 0x2D ACK
0.968488416666667,SMBus,Byte 0x34 ACK
0.968667333333333,SMBus,Byte 0x32 ACK
0.968846250000000,SMBus,Byte 0x54 ACK
0.969025166666667,SMBus,Byte 0x34 ACK
0.969204083333333,SMBus,Byte 0x37 ACK
0.969383000000000,SMBus,Byte 0x36 ACK
0.969561916666667,SMBus,Byte 0x35 ACK
0.969684416666667,SMBus,PEC 0xDD OK
0.982019166666667,SMBus,Write address 0x0B ACK Protocol=Block write
0.982169333333333,SMBus,Command DeviceChemistry 0x22
0.982377000000000,SMBus,Read address 0x0B ACK Protocol=Block write
0.982588750000000,SMBus,Byte count 0x04
0.982762916666667,SMBus,Byte 0x4C ACK
0.982941916666667,SMBus,Byte 0x49 ACK
0.983120833333333,SMBus,Byte 0x4F ACK
0.983299833333333,SMBus,Byte 0x4E ACK
0.983476000000000,SMBus,PEC 0x31 OK
1.001022250000000,SMBus,Write address 0x0B ACK Protocol=Process call
1.001210750000000,SMBus,Command OptionalMfgFunction4 0x3C
1.001351333333333,SMBus,Byte count 0x04
1.001491916666667,SMBus,Byte 0x02 ACK
1.001632416666667,SMBus,Byte 0x34 ACK
1.001773000000000,SMBus,Byte 0x00 ACK
1.001913583333333,SMBus,Byte 0x00 ACK
1.002030000000000,SMBus,PEC 0xB8 OK
1.106874416666667,SMBus,Write address 0x0B ACK Protocol=Block write
1.107024583333333,SMBus,Command OptionalMfgFunction4 0x3C
1.107232250000000,SMBus,Read address 0x0B ACK Protocol=Block write
1.107494083333333,SMBus,Byte count 0x0A
1.107670083333333,SMBus,Byte 0x4C ACK
1.107849000000000,SMBus,Byte 0x45 ACK
1.108027916666667,SMBus,Byte 0x4E ACK
1.108205916666667,SMBus,Byte 0x4F ACK
1.108384833333333,SMBus,Byte 0x56 ACK
1.108563833333333,SMBus,Byte 0x4F ACK
1.108699250000000,SMBus,Byte 0xED ACK
1.108878166666667,SMBus,Byte 0xE6 ACK
1.109057083333333,SMBus,Byte 0x91 ACK
1.109292916666667,SMBus,Byte 0x65 ACK
1.109469000000000,SMBus,PEC 0x6D OK
1.110836083333333,SMBus,Write address 0x0B ACK Protocol=Read word
1.110986250000000,SMBus,Command <error> 0x35
1.111193916666667,SMBus,Read address 0x0B ACK Protocol=Read word
1.111320500000000,SMBus,Word 0x8000 ACK
1.111715250000000,SMBus,PEC 0x9C OK
1.113008583333333,SMBus,Write address 0x0B ACK Protocol=Block write
1.113158750000000,SMBus,Command <error> 0x37
1.113366416666667,SMBus,Read address 0x0B ACK Protocol=Block write
1.113579416666667,SMBus,Byte count 0x08
1.113752666666667,SMBus,Byte 0x04 ACK
1.113931583333333,SMBus,Byte 0x00 ACK
1.114110583333333,SMBus,Byte 0x3D ACK
1.114289500000000,SMBus,Byte 0x5E ACK
1.114468416666667,SMBus,Byte 0x61 ACK
1.114647416666667,SMBus,Byte 0x01 ACK
1.114826333333333,SMBus,Byte 0x40 ACK
1.115005250000000,SMBus,Byte 0x01 ACK
1.115127333333333,SMBus,PEC 0xFA OK
1.117225750000000,SMBus,Read address 0x05 ACK
1.117339000000000,SMBus,Bad PEC 0x17 should be 0x31
1.117621916666667,SMBus,Read address 0x0B ACK
1.117834000000000,SMBus,Byte 0x0B ACK
1.118008166666667,SMBus,Byte 0x31 ACK
1.118187083333333,SMBus,Byte 0x5A ACK
1.118366000000000,SMBus,Byte 0x37 ACK
1.118544916666667,SMBus,Byte 0x53 ACK
1.118723833333333,SMBus,Byte 0x53 ACK
1.118902750000000,SMBus,Byte 0x33 ACK
1.119081666666667,SMBus,Byte 0x33 ACK
1.119260583333333,SMBus,Byte 0x43 ACK
1.119439500000000,SMBus,Byte 0x31 ACK
1.119618416666667,SMBus,Byte 0x32 ACK
1.119797333333333,SMBus,Byte 0x31 ACK
1.119919666666667,SMBus,Bad PEC 0xF2 should be 0x58
1.121264083333333,SMBus,Write address 0x0B ACK Protocol=Read word
1.121414250000000,SMBus,Command OptionalMfgFunction2 0x3E
1.121621916666667,SMBus,Read address 0x0B ACK Protocol=Read word
1.121846416666667,SMBus,Word 0x0100 ACK
1.122130500000000,SMBus,PEC 0xB5 OK
1.123449416666667,SMBus,Write address 0x0B ACK Protocol=Read word
1.123599500000000,SMBus,Command OptionalMfgFunction1 0x3F
1.123807166666667,SMBus,Read address 0x0B ACK Protocol=Read word
1.124037000000000,SMBus,Word 0x2F4F ACK
1.124366416666667,SMBus,Bad PEC 0x18 should be 0x31
1.125762500000000,SMBus,Write address 0x0B ACK Protocol=Read word
1.125912583333333,SMBus,Command OptionalMfgFunction1 0x3F
1.126120250000000,SMBus,Read address 0x0B ACK Protocol=Read word
1.126349333333333,SMBus,Word 0x2F4F ACK
1.126693000000000,SMBus,PEC 0x31 OK
1.128331166666667,SMBus,Write address 0x0B ACK Protocol=Read word
1.128481250000000,SMBus,Command ManufacturerAccess 0x00
1.128688916666667,SMBus,Read address 0x0B ACK Protocol=Read word
1.128859333333333,SMBus,Word 0x1800 ACK
1.129209583333333,SMBus,PEC 0x32 OK
1.130478083333333,SMBus,Write address 0x0B ACK Protocol=Read word
1.130628250000000,SMBus,Command BatteryStatus 0x16
1.130835916666667,SMBus,Read address 0x0B ACK Protocol=Read word
1.130962083333333,SMBus,BatteryStatus 0xE0C0 OVER CHARGED ALARM=1, TERMINATE CHARGE ALARM=1, OVER TEMP ALARM=0, TERMINATE DISCHARGE ALARM=0, REMAINING CAPACITY ALARM=0, REMAINING TIME ALARM=0, INITIALIZED=1, DISCHARGING=1, FULLY CHARGED=0, FULLY DISCHARGED=0, ErrorCode=OK
1.131318916666667,SMBus,Bad PEC 0xC9 should be 0xD3
1.132663333333333,SMBus,Write address 0x0B ACK Protocol=Read word
1.132813500000000,SMBus,Command ChargingCurrent 0x14
1.133021166666667,SMBus,Read address 0x0B ACK Protocol=Read word
1.133222083333333,SMBus,Word 0x0000 ACK
1.133504166666667,SMBus,PEC 0xF2 OK
1.135117000000000,SMBus,Write address 0x0B ACK Protocol=Read word
1.135267166666667,SMBus,Command ChargingVoltage 0x15
1.135474833333333,SMBus,Read address 0x0B ACK Protocol=Read word
1.135676416666667,SMBus,Word 0x3831 ACK
1.136008500000000,SMBus,PEC 0x22 OK
1.137276750000000,SMBus,Write address 0x0B ACK Protocol=Read word
1.137426916666667,SMBus,Command Temperature 0x08
1.137634583333333,SMBus,Read address 0x0B ACK Protocol=Read word
1.137761083333333,SMBus,Word 0x920B ACK
1.138117583333333,SMBus,PEC 0x87 OK
1.139640916666667,SMBus,Write address 0x0B ACK Protocol=Read word
1.139791083333333,SMBus,Command <error> 0x3B
1.140017916666667,SMBus,Read address 0x0B ACK Protocol=Read word
1.140163250000000,SMBus,Word 0x8905 ACK
1.140532500000000,SMBus,Bad PEC 0x05 should be 0xFE
1.141864583333333,SMBus,Write address 0x0B ACK Protocol=Read word
1.142014750000000,SMBus,Command Voltage 0x09
1.142222416666667,SMBus,Read address 0x0B ACK Protocol=Read word
1.142348166666667,SMBus,Word 0xD130 ACK
1.142743666666667,SMBus,PEC 0x54 OK
1.144343750000000,SMBus,Write address 0x0B ACK Protocol=Read word
1.144532250000000,SMBus,Command RemainingCapacity 0x0F
1.144739916666667,SMBus,Read address 0x0B ACK Protocol=Read word
1.144933333333333,SMBus,Word 0x0B14 ACK
1.145223000000000,SMBus,PEC 0xE4 OK
1.146605750000000,SMBus,Write address 0x0B ACK Protocol=Read word
1.146755916666667,SMBus,Command FullChargeCapacity 0x10
1.146963583333333,SMBus,Read address 0x0B ACK Protocol=Read word
1.147158333333333,SMBus,Word 0x0E14 ACK
1.147497250000000,SMBus,PEC 0x10 OK
1.149263833333333,SMBus,Write address 0x0B ACK Protocol=Read word
1.149414000000000,SMBus,Command Current 0x0A
1.149621666666667,SMBus,Read address 0x0B ACK Protocol=Read word
1.149808583333333,SMBus,Word 0x0000 ACK
1.150081750000000,SMBus,Bad PEC 0x28 should be 0x51
1.151410833333333,SMBus,Write address 0x0B ACK Protocol=Read word
1.151561000000000,SMBus,Command RunTimeToEmpty 0x11
1.151768666666667,SMBus,Read address 0x0B ACK Protocol=Read word
1.151895000000000,SMBus,Word 0xFFFF ACK
1.152251666666667,SMBus,PEC 0x98 OK
1.153902833333333,SMBus,Write address 0x0B ACK Protocol=Read word
1.154052916666667,SMBus,Command AverageCurrent 0x0B
1.154260666666667,SMBus,Read address 0x0B ACK Protocol=Read word
1.154447833333333,SMBus,Word 0x0000 ACK
1.154781916666667,SMBus,PEC 0x47 OK
1.156088083333333,SMBus,Write address 0x0B ACK Protocol=Read word
1.156238250000000,SMBus,Command AverageTimeToFull 0x13
1.156445916666667,SMBus,Read address 0x0B ACK Protocol=Read word
1.156572500000000,SMBus,Word 0xFFFF ACK
1.156928916666667,SMBus,PEC 0xB4 OK
1.158222250000000,SMBus,Write address 0x0B ACK Protocol=Read word
1.158372416666667,SMBus,Command AverageTimeToEmpty 0x12
1.158580083333333,SMBus,Read address 0x0B ACK Protocol=Read word
1.158706000000000,SMBus,Word 0xFFFF ACK
1.159063083333333,SMBus,PEC 0xA2 OK
1.160573666666667,SMBus,Write address 0x0B ACK Protocol=Read word
1.160723833333333,SMBus,Command CycleCount 0x17
1.160931500000000,SMBus,Read address 0x0B ACK Protocol=Read word
1.161057333333333,SMBus,Word 0xF100 ACK
1.161414500000000,SMBus,PEC 0xC9 OK
1.163040083333333,SMBus,Write address 0x0B ACK Protocol=Read word
1.163190250000000,SMBus,Command MaxError 0x0C
1.163397916666667,SMBus,Read address 0x0B ACK Protocol=Read word
1.163585416666667,SMBus,Word 0x0800 ACK
1.163868166666667,SMBus,PEC 0x8D OK
1.165174250000000,SMBus,Write address 0x0B ACK Protocol=Read word
1.165324416666667,SMBus,Command RelativeStateOfCharge 0x0D
1.165570416666667,SMBus,Read address 0x0B ACK Protocol=Read word
1.165761000000000,SMBus,Word 0x6400 ACK
1.166040666666667,SMBus,Bad PEC 0x93 should be 0x92
1.167346750000000,SMBus,Write address 0x0B ACK Protocol=Block write
1.167496916666667,SMBus,Command ManufacturerData 0x23
1.167704583333333,SMBus,Read address 0x0B ACK Protocol=Block write
1.167914916666667,SMBus,Byte count 0x0C
1.168091000000000,SMBus,Byte 0x42 ACK
1.168269916666667,SMBus,Byte 0x0A ACK
1.168448833333333,SMBus,Byte 0x05 ACK
1.168627750000000,SMBus,Byte 0x12 ACK
1.168749916666667,SMBus,Byte 0x86 ACK
1.168985666666667,SMBus,Byte 0x0F ACK
1.169107750000000,SMBus,Byte 0x86 ACK
1.169343416666667,SMBus,Byte 0x0F ACK
1.169465583333333,SMBus,Byte 0x86 ACK
1.169701333333333,SMBus,Byte 0x0F ACK
1.169823416666667,SMBus,Byte 0x86 ACK
1.170059166666667,SMBus,Byte 0x0F ACK
1.170235333333333,SMBus,PEC 0x1B OK
1.171576750000000,SMBus,Write address 0x0B ACK Protocol=Block write
1.171726916666667,SMBus,Command <error> 0x30
1.171934583333333,SMBus,Read address 0x0B ACK Protocol=Block write
1.172146333333333,SMBus,Byte count 0x0A
1.172320416666667,SMBus,Byte 0x09 ACK
1.172443166666667,SMBus,Byte 0xEB ACK
1.172691666666667,SMBus,Byte 0x1A ACK
1.172813750000000,SMBus,Byte 0xC1 ACK
1.173049583333333,SMBus,Byte 0x09 ACK
1.173228500000000,SMBus,Byte 0x15 ACK
1.173407416666667,SMBus,Byte 0x00 ACK
1.173586333333333,SMBus,Byte 0x00 ACK
1.173765250000000,SMBus,Byte 0x00 ACK
1.173944166666667,SMBus,Byte 0x00 ACK
1.174120250000000,SMBus,Bad PEC 0x5B should be 0x5A
1.176611916666667,SMBus,Write address 0x0B ACK Protocol=Read word
1.176762000000000,SMBus,Command ManufacturerAccess 0x00
1.176982500000000,SMBus,Read address 0x0B ACK Protocol=Read word
1.177152500000000,SMBus,Word 0x1800 ACK
1.177491333333333,SMBus,PEC 0x32 OK
1.179372250000000,SMBus,Write address 0x0B ACK Protocol=Read word
1.179522416666667,SMBus,Command BatteryStatus 0x16
1.179730083333333,SMBus,Read address 0x0B ACK Protocol=Read word
1.179855916666667,SMBus,BatteryStatus 0xE0C0 OVER CHARGED ALARM=1, TERMINATE CHARGE ALARM=1, OVER TEMP ALARM=0, TERMINATE DISCHARGE ALARM=0, REMAINING CAPACITY ALARM=0, REMAINING TIME ALARM=0, INITIALIZED=1, DISCHARGING=1, FULLY CHARGED=0, FULLY DISCHARGED=0, ErrorCode=OK
1.180213083333333,SMBus,PEC 0xD3 OK
1.181634250000000,SMBus,Write address 0x0B ACK Protocol=Read word
1.181784333333333,SMBus,Command ChargingCurrent 0x14
1.181992000000000,SMBus,Read address 0x0B ACK Protocol=Read word
1.182192833333333,SMBus,Word 0x0000 ACK
1.182475083333333,SMBus,PEC 0xF2 OK
1.184215666666667,SMBus,Write address 0x0B ACK Protocol=Read word
1.184365833333333,SMBus,Command ChargingVoltage 0x15
1.184573500000000,SMBus,Read address 0x0B ACK Protocol=Read word
1.184775750000000,SMBus,Word 0x3831 ACK
1.185107916666667,SMBus,PEC 0x22 OK
1.186452083333333,SMBus,Write address 0x0B ACK Protocol=Read word
1.186602250000000,SMBus,Command Temperature 0x08
1.186809916666667,SMBus,Read address 0x0B ACK Protocol=Read word
1.186936500000000,SMBus,Word 0x920B ACK
1.187280166666667,SMBus,PEC 0x87 OK
1.189199666666667,SMBus,Write address 0x0B ACK Protocol=Read word
1.189349833333333,SMBus,Command <error> 0x3B
1.189557500000000,SMBus,Read address 0x0B ACK Protocol=Read word
1.189684000000000,SMBus,Word 0x920B ACK
1.190116583333333,SMBus,PEC 0x14 OK
1.191512750000000,SMBus,Write address 0x0B ACK Protocol=Read word
1.191662916666667,SMBus,Command Voltage 0x09
1.191870583333333,SMBus,Read address 0x0B ACK Protocol=Read word
1.191996833333333,SMBus,Word 0xD818 NACK
1.192330666666667,SMBus,Bad PEC 0x2A should be 0x31
1.194081416666667,SMBus,Write address 0x0B ACK Protocol=Read word
1.194231583333333,SMBus,Command RemainingCapacity 0x0F
1.194439250000000,SMBus,Read address 0x0B ACK Protocol=Read word
1.194632833333333,SMBus,Word 0x0B14 ACK
1.194922250000000,SMBus,PEC 0xE4 OK
1.196343333333333,SMBus,Write address 0x0B ACK Protocol=Read word
1.196493500000000,SMBus,Command FullChargeCapacity 0x10
1.196701166666667,SMBus,Read address 0x0B ACK Protocol=Read word
1.196896166666667,SMBus,Word 0x0E14 ACK
1.197248250000000,SMBus,PEC 0x10 OK
1.199039833333333,SMBus,Write address 0x0B ACK Protocol=Read word
1.199190000000000,SMBus,Command Current 0x0A
1.199397666666667,SMBus,Read address 0x0B ACK Protocol=Read word
1.199584666666667,SMBus,Word 0x0000 ACK
1.199918583333333,SMBus,PEC 0x51 OK
1.201263416666667,SMBus,Write address 0x0B ACK Protocol=Read word
1.201413583333333,SMBus,Command RunTimeToEmpty 0x11
1.201621250000000,SMBus,Read address 0x0B ACK Protocol=Read word
1.201747083333333,SMBus,Word 0xFFFF ACK
1.202104250000000,SMBus,PEC 0x98 OK
1.203857666666667,SMBus,Write address 0x0B ACK Protocol=Read word
1.204007833333333,SMBus,Command AverageCurrent 0x0B
1.204215500000000,SMBus,Read address 0x0B ACK Protocol=Read word
1.204402750000000,SMBus,Word 0x0000 ACK
1.204736666666667,SMBus,PEC 0x47 OK
1.206119666666667,SMBus,Write address 0x0B ACK Protocol=Read word
1.206269750000000,SMBus,Command AverageTimeToFull 0x13
1.206515833333333,SMBus,Read address 0x0B ACK Protocol=Read word
1.206642000000000,SMBus,Word 0xFFFF ACK
1.206998833333333,SMBus,PEC 0xB4 OK
1.209148333333333,SMBus,Write address 0x0B ACK Protocol=Read word
1.209298500000000,SMBus,Command AverageTimeToEmpty 0x12
1.209506166666667,SMBus,Read address 0x0B ACK Protocol=Read word
1.209632833333333,SMBus,Word 0xFFFF ACK
1.209989250000000,SMBus,PEC 0xA2 OK
1.211372000000000,SMBus,Write address 0x0B ACK Protocol=Read word
1.211522166666667,SMBus,Command CycleCount 0x17
1.211729833333333,SMBus,Read address 0x0B ACK Protocol=Read word
1.211855666666667,SMBus,Word 0xF100 ACK
1.212212833333333,SMBus,PEC 0xC9 OK
1.213991750000000,SMBus,Write address 0x0B ACK Protocol=Read word
1.214141916666667,SMBus,Command MaxError 0x0C
1.214349583333333,SMBus,Read address 0x0B ACK Protocol=Read word
1.214536833333333,SMBus,Word 0x0800 ACK
1.214819833333333,SMBus,PEC 0x8D OK
1.216228166666667,SMBus,Write address 0x0B ACK Protocol=Read word
1.216378333333333,SMBus,Command MaxError 0x0C
1.216586000000000,SMBus,Read address 0x0B ACK Protocol=Read word
1.216776666666667,SMBus,Word 0x6400 ACK
1.217069000000000,SMBus,Bad PEC 0x92 should be 0x84
1.218502916666667,SMBus,Write address 0x0B ACK Protocol=Block write
1.218653083333333,SMBus,Command ManufacturerData 0x23
1.218860750000000,SMBus,Read address 0x0B ACK Protocol=Block write
1.219071083333333,SMBus,Byte count 0x0C
1.219247250000000,SMBus,Byte 0x42 ACK
1.219426166666667,SMBus,Byte 0x0A ACK
1.219605083333333,SMBus,Byte 0x05 ACK
1.219784000000000,SMBus,Byte 0x12 ACK
1.219906083333333,SMBus,Byte 0x86 ACK
1.220141833333333,SMBus,Byte 0x0F ACK
1.220263916666667,SMBus,Byte 0x86 ACK
1.220499583333333,SMBus,Byte 0x0F ACK
1.220621750000000,SMBus,Byte 0x86 ACK
1.220857416666667,SMBus,Byte 0x0F ACK
1.220979583333333,SMBus,Byte 0x86 ACK
1.221215250000000,SMBus,Byte 0x0F ACK
1.221391250000000,SMBus,PEC 0x1B OK
1.222771250000000,SMBus,Write address 0x0B ACK
1.222921416666667,SMBus,Bad PEC 0x30 should be 0x62
1.223129083333333,SMBus,Read address 0x05 NACK
1.223242166666667,SMBus,Byte 0x05 ACK
1.223448583333333,SMBus,Byte 0x04 NACK
1.223624500000000,SMBus,Byte 0x75 NACK
1.223803416666667,SMBus,Byte 0x0D ACK
1.223985333333333,SMBus,Byte 0x60 NACK
1.224161250000000,SMBus,Byte 0x04 NACK
1.224340166666667,SMBus,Byte 0x0A NACK
1.224519083333333,SMBus,Byte 0x00 ACK
1.224701000000000,SMBus,Byte 0x00 ACK
1.224879916666667,SMBus,Byte 0x00 ACK
1.225046000000000,SMBus,Byte 0x00 ACK
1.225224916666667,SMBus,Bad PEC 0x16 should be 0x97
4.423052500000000,SMBus,Write address 0x0B ACK Protocol=Read word
4.423221833333334,SMBus,Command ManufacturerAccess 0x00
4.423429500000000,SMBus,Read address 0x0B ACK Protocol=Read word
4.423599583333333,SMBus,Word 0x1800 ACK
4.423938333333333,SMBus,PEC 0x32 OK
4.425640416666667,SMBus,Write address 0x0B ACK Protocol=Read word
4.425790500000000,SMBus,Command BatteryStatus 0x16
4.425998166666667,SMBus,Read address 0x0B ACK Protocol=Read word
4.426124666666666,SMBus,BatteryStatus 0xE060 OVER CHARGED ALARM=1, TERMINATE CHARGE ALARM=1, OVER TEMP ALARM=0, TERMINATE DISCHARGE ALARM=0, REMAINING CAPACITY ALARM=0, REMAINING TIME ALARM=0, INITIALIZED=0, DISCHARGING=1, FULLY CHARGED=1, FULLY DISCHARGED=0, ErrorCode=OK
4.426471083333333,SMBus,Bad PEC 0x69 should be 0xBA
4.428183500000000,SMBus,Write address 0x0B ACK Protocol=Read word
4.428333666666667,SMBus,Command ChargingCurrent 0x14
4.428541333333333,SMBus,Read address 0x0B ACK Protocol=Read word
4.428742166666667,SMBus,Word 0x0000 ACK
4.429024333333333,SMBus,PEC 0xF2 OK
4.431237750000000,SMBus,Write address 0x0B ACK Protocol=Read word
4.431387916666667,SMBus,Command ChargingVoltage 0x15
4.431633916666667,SMBus,Read address 0x0B ACK Protocol=Read word
4.431836250000000,SMBus,Word 0x3831 ACK
4.432167416666666,SMBus,PEC 0x22 OK
4.433780916666667,SMBus,Write address 0x0B ACK Protocol=Read word
4.433931000000000,SMBus,Command Temperature 0x08
4.434138666666667,SMBus,Read address 0x0B ACK Protocol=Read word
4.434265166666667,SMBus,Word 0x920B ACK
4.434608916666667,SMBus,PEC 0x87 OK
4.436298416666666,SMBus,Write address 0x0B ACK Protocol=Read word
4.436448583333333,SMBus,Command <error> 0x3B
4.436656250000000,SMBus,Read address 0x0B ACK Protocol=Read word
4.436782333333333,SMBus,Word 0x920B ACK
4.437228250000000,SMBus,PEC 0x14 OK
4.438982083333333,SMBus,Write address 0x0B ACK Protocol=Read word
4.439145083333333,SMBus,Command Voltage 0x09
4.439352750000000,SMBus,Read address 0x0B ACK Protocol=Read word
4.439479333333334,SMBus,Word 0xCF30 ACK
4.439823000000000,SMBus,PEC 0xD5 OK
4.442138666666667,SMBus,Write address 0x0B ACK Protocol=Read word
4.442288833333333,SMBus,Command RemainingCapacity 0x0F
4.442496500000000,SMBus,Read address 0x0B ACK Protocol=Read word
4.442615000000000,SMBus,Word 0x520A NACK
4.442966333333334,SMBus,Bad PEC 0x16 should be 0x0F
4.444873416666667,SMBus,Write address 0x0B ACK Protocol=Read word
4.445061916666667,SMBus,Command FullChargeCapacity 0x10
4.445269583333333,SMBus,Read address 0x0B ACK Protocol=Read word
4.445396000000000,SMBus,Word 0xA815 ACK
4.445804833333334,SMBus,PEC 0x71 OK
4.447633833333334,SMBus,Write address 0x0B ACK Protocol=Read word
4.447783916666666,SMBus,Command Current 0x0A
4.447991666666667,SMBus,Read address 0x0B ACK Protocol=Read word
4.448178416666667,SMBus,Word 0x0000 ACK
4.448512416666667,SMBus,PEC 0x51 OK
4.450637000000000,SMBus,Write address 0x0B ACK Protocol=Read word
4.450787166666666,SMBus,Command RunTimeToEmpty 0x11
4.451014000000000,SMBus,Read address 0x0B ACK Protocol=Read word
4.451159500000000,SMBus,Word 0xFFFF ACK
4.451516166666667,SMBus,PEC 0x98 OK
4.453729583333334,SMBus,Write address 0x0B ACK Protocol=Read word
4.453879750000000,SMBus,Command AverageCurrent 0x0B
4.454087416666667,SMBus,Read address 0x0B ACK Protocol=Read word
4.454275083333333,SMBus,Word 0x0000 ACK
4.454608166666667,SMBus,PEC 0x47 OK
4.456374916666666,SMBus,Write address 0x0B ACK Protocol=Read word
4.456525083333333,SMBus,Command AverageTimeToFull 0x13
4.456732750000000,SMBus,Read address 0x0B ACK Protocol=Read word
4.456859250000000,SMBus,Word 0xFFFF ACK
4.457215750000000,SMBus,PEC 0xB4 OK
4.459212000000000,SMBus,Write address 0x0B ACK Protocol=Read word
4.459362166666667,SMBus,Command AverageTimeToEmpty 0x12
4.459608166666666,SMBus,Read address 0x0B ACK Protocol=Read word
4.459734416666667,SMBus,Word 0xFFFF ACK
4.460091166666666,SMBus,PEC 0xA2 OK
4.461806250000000,SMBus,Write address 0x0B ACK Protocol=Read word
4.461956333333333,SMBus,Command CycleCount 0x17
4.462164000000000,SMBus,Read address 0x0B ACK Protocol=Read word
4.462290500000000,SMBus,Word 0xF100 ACK
4.462672583333333,SMBus,PEC 0xC9 OK
4.464783833333334,SMBus,Write address 0x0B ACK Protocol=Read word
4.464934000000000,SMBus,Command MaxError 0x0C
4.465141666666667,SMBus,Read address 0x0B ACK Protocol=Read word
4.465329250000000,SMBus,Word 0x0800 ACK
4.465611916666667,SMBus,PEC 0x8D OK
4.467288583333334,SMBus,Write address 0x0B ACK Protocol=Read word
4.467438750000000,SMBus,Command AtRateTimeToEmpty 0x06
4.467646416666667,SMBus,Read address 0x0B ACK Protocol=Read word
4.467836916666666,SMBus,Word 0x6400 ACK
4.468129416666667,SMBus,Bad PEC 0x92 should be 0x18
4.470215083333334,SMBus,Write address 0x0B ACK Protocol=Block write
4.470365250000000,SMBus,Command ManufacturerData 0x23
4.470572916666667,SMBus,Read address 0x0B ACK Protocol=Block write
4.470782916666667,SMBus,Byte count 0x0C
4.470959000000000,SMBus,Byte 0x42 ACK
4.471137833333334,SMBus,Byte 0x0A ACK
4.471316833333334,SMBus,Byte 0x05 ACK
4.471495750000000,SMBus,Byte 0x12 ACK
4.471618250000000,SMBus,Byte 0x86 ACK
4.471853583333333,SMBus,Byte 0x0F ACK
4.471976083333334,SMBus,Byte 0x86 ACK
4.472211416666667,SMBus,Byte 0x0F ACK
4.472333833333333,SMBus,Byte 0x86 ACK
4.472569250000000,SMBus,Byte 0x0F ACK
4.472691666666667,SMBus,Byte 0x86 ACK
4.472927083333333,SMBus,Byte 0x0F ACK
4.473103166666666,SMBus,PEC 0x1B OK
4.475339666666667,SMBus,Write address 0x0B ACK Protocol=Block write
4.475528166666667,SMBus,Command <error> 0x30
4.475735833333333,SMBus,Read address 0x0B ACK Protocol=Block write
4.475947500000000,SMBus,Byte count 0x0A
4.476121666666667,SMBus,Byte 0x09 ACK
4.476244416666667,SMBus,Byte 0xEB ACK
4.476479500000000,SMBus,Byte 0x1A ACK
4.476602250000000,SMBus,Byte 0xC1 ACK
4.476837333333333,SMBus,Byte 0x09 ACK
4.477016250000000,SMBus,Byte 0x15 ACK
4.477195166666666,SMBus,Byte 0x00 ACK
4.477374083333333,SMBus,Byte 0x00 ACK
4.477552916666666,SMBus,Byte 0x00 ACK
4.477731833333333,SMBus,Byte 0x00 ACK
4.477907916666667,SMBus,PEC 0x5A OK
4.480246916666666,SMBus,Write address 0x0B ACK Protocol=Read word
4.480397083333333,SMBus,Command ManufacturerAccess 0x00
4.480604750000000,SMBus,Read address 0x0B ACK Protocol=Read word
4.480775500000000,SMBus,Word 0x1800 ACK
4.481113416666667,SMBus,PEC 0x32 OK
4.482751750000000,SMBus,Write address 0x0B ACK Protocol=Read word
4.482901833333333,SMBus,Command BatteryStatus 0x16
4.483109500000000,SMBus,Read address 0x0B ACK Protocol=Read word
4.483236166666667,SMBus,BatteryStatus 0xE0C0 OVER CHARGED ALARM=1, TERMINATE CHARGE ALARM=1, OVER TEMP ALARM=0, TERMINATE DISCHARGE ALARM=0, REMAINING CAPACITY ALARM=0, REMAINING TIME ALARM=0, INITIALIZED=1, DISCHARGING=1, FULLY CHARGED=0, FULLY DISCHARGED=0, ErrorCode=OK
4.483592583333333,SMBus,PEC 0xD3 OK
4.485818750000000,SMBus,Write address 0x0B ACK Protocol=Read word
4.486007250000000,SMBus,Command ChargingCurrent 0x14
4.486214916666666,SMBus,Read address 0x0B ACK Protocol=Read word
4.486415416666667,SMBus,Word 0x0000 ACK
4.486698000000000,SMBus,PEC 0xF2 OK
4.488387416666667,SMBus,Write address 0x0B ACK Protocol=Read word
4.488537583333334,SMBus,Command ChargingVoltage 0x15
4.488745250000000,SMBus,Read address 0x0B ACK Protocol=Read word
4.488946750000000,SMBus,Word 0x3831 ACK
4.489278833333334,SMBus,PEC 0x22 OK
4.491339500000000,SMBus,Write address 0x0B ACK Protocol=Read word
4.491489666666666,SMBus,Command Temperature 0x08
4.491697333333334,SMBus,Read address 0x05 NACK Protocol=Read word
4.491810166666666,SMBus,Word 0x4905 ACK
4.492154416666667,SMBus,Bad PEC 0x43 should be 0xD8
4.493857083333333,SMBus,Write address 0x0B ACK Protocol=Read word
4.494007250000000,SMBus,Command <error> 0x3B
4.494214916666667,SMBus,Read address 0x0B ACK Protocol=Read word
4.494340916666666,SMBus,Word 0x920B ACK
4.494774500000000,SMBus,PEC 0x14 OK
4.496885750000000,SMBus,Write address 0x0B ACK Protocol=Read word
4.497035916666666,SMBus,Command Voltage 0x09
4.497243583333334,SMBus,Read address 0x0B ACK Protocol=Read word
4.497370166666666,SMBus,Word 0xCF30 ACK
4.497713833333333,SMBus,PEC 0xD5 OK
4.499390583333334,SMBus,Write address 0x0B ACK Protocol=Read word
4.499540750000000,SMBus,Command RemainingCapacity 0x0F
4.499748416666667,SMBus,Read address 0x0B ACK Protocol=Read word
4.499875083333333,SMBus,Word 0xA514 ACK
4.500205416666667,SMBus,Bad PEC 0x16 should be 0x2A
4.501920916666666,SMBus,Write address 0x0B ACK Protocol=Read word
4.502071000000000,SMBus,Command FullChargeCapacity 0x10
4.502278750000000,SMBus,Read address 0x0B ACK Protocol=Read word
4.502405500000000,SMBus,Word 0xA81A ACK
4.502748583333333,SMBus,Bad PEC 0x38 should be 0x5C
4.504540666666666,SMBus,Write address 0x0B ACK Protocol=Read word
4.504690833333333,SMBus,Command Current 0x0A
4.504898500000000,SMBus,Read address 0x0B ACK Protocol=Read word
4.505084666666667,SMBus,Word 0x0000 ACK
4.505432833333334,SMBus,PEC 0x51 OK
4.507505500000000,SMBus,Write address 0x0B ACK Protocol=Read word
4.507655666666667,SMBus,Command RunTimeToEmpty 0x11
4.507863333333334,SMBus,Read address 0x0B ACK Protocol=Read word
4.507989166666666,SMBus,Word 0xFFFF ACK
4.508346333333333,SMBus,PEC 0x98 OK
4.510451166666667,SMBus,Write address 0x0B ACK Protocol=Read word
4.510620500000000,SMBus,Command AverageCurrent 0x0B
4.510828166666666,SMBus,Read address 0x0B ACK Protocol=Read word
4.511015833333333,SMBus,Word 0x0000 ACK
4.511349833333333,SMBus,PEC 0x47 OK
4.513039000000000,SMBus,Write address 0x0B ACK Protocol=Read word
4.513189166666667,SMBus,Command AverageTimeToFull 0x13
4.513397083333333,SMBus,Read address 0x0B ACK Protocol=Read word
4.513536166666666,SMBus,Word 0xFFFF ACK
4.513892666666667,SMBus,PEC 0xB4 OK
4.515697166666667,SMBus,Write address 0x0B ACK Protocol=Read word
4.515847250000000,SMBus,Command AverageTimeToEmpty 0x12
4.516054916666667,SMBus,Read address 0x0B ACK Protocol=Read word
4.516181500000000,SMBus,Word 0xFFFF ACK
4.516538000000000,SMBus,PEC 0xA2 OK
4.518585250000000,SMBus,Write address 0x0B ACK Protocol=Read word
4.518735416666667,SMBus,Command CycleCount 0x17
4.518943166666666,SMBus,Read address 0x0B ACK Protocol=Read word
4.519069500000000,SMBus,Word 0xF100 ACK
4.519426166666666,SMBus,PEC 0xC9 OK
4.521441500000000,SMBus,Write address 0x0B ACK Protocol=Read word
4.521610833333333,SMBus,Command MaxError 0x0C
4.521818500000000,SMBus,Read address 0x0B ACK Protocol=Read word
4.522005916666667,SMBus,Word 0x0800 ACK
4.522288750000000,SMBus,PEC 0x8D OK
4.523939833333333,SMBus,Write address 0x0B ACK Protocol=Read word
4.524090000000000,SMBus,Command RelativeStateOfCharge 0x0D
4.524297666666667,SMBus,Read address 0x0B ACK Protocol=Read word
4.524487666666666,SMBus,Word 0x6400 ACK
4.524767916666667,SMBus,PEC 0x92 OK
4.526521333333333,SMBus,Write address 0x0B ACK
4.526671500000000,SMBus,Bad PEC 0x23 should be 0x62
4.526879166666666,SMBus,Read address 0x0B NACK
4.526992083333333,SMBus,Byte 0x06 ACK
4.527198666666667,SMBus,Byte 0x21 ACK
4.527377583333333,SMBus,Byte 0x05 ACK
4.527569250000000,SMBus,Byte 0x02 NACK
4.527745166666667,SMBus,Byte 0x08 NACK
4.527912333333333,SMBus,Byte 0x21 NACK
4.528091250000000,SMBus,Byte 0x03 NACK
4.528272083333333,SMBus,Byte 0xA1 NACK
4.528449083333333,SMBus,Byte 0x03 NACK
4.528629916666667,SMBus,Byte 0xA1 NACK
4.528806750000000,SMBus,Byte 0x03 NACK
4.528987750000000,SMBus,Byte 0xA1 NACK
4.529164583333333,SMBus,Byte 0x03 NACK
4.529345583333333,SMBus,Bad PEC 0x86 should be 0x13
4.531428666666667,SMBus,Write address 0x0B ACK Protocol=Block write
4.531578750000000,SMBus,Command <error> 0x30
4.531786416666667,SMBus,Read address 0x0B ACK Protocol=Block write
4.531997416666667,SMBus,Byte count 0x0A
4.532172500000000,SMBus,Byte 0x09 ACK
4.532295000000000,SMBus,Byte 0xEB ACK
4.532530333333334,SMBus,Byte 0x1A ACK
4.532652833333334,SMBus,Byte 0xC1 ACK
4.532888166666667,SMBus,Byte 0x09 ACK
4.533067000000000,SMBus,Byte 0x15 ACK
4.533245916666667,SMBus,Byte 0x00 ACK
4.533424750000000,SMBus,Byte 0x00 ACK
4.533617000000000,SMBus,Byte 0x00 ACK
4.533795916666667,SMBus,Byte 0x00 ACK
4.533972000000000,SMBus,PEC 0x5A OK
