Time [s], Analyzer Name, Decoded Protocol Result
6.343831583333333,SMBus,Write address 0x0B ACK Protocol=Read word
6.343981666666667,SMBus,Command ManufacturerAccess 0x00
6.344189333333333,SMBus,Read address 0x0B ACK Protocol=Read word
6.344360083333333,SMBus,Word 0x1800 ACK
6.344748583333334,SMBus,PEC 0x32 OK
6.347601333333333,SMBus,Write address 0x0B ACK Protocol=Read word
6.347751500000000,SMBus,Command BatteryStatus 0x16
6.347959166666667,SMBus,Read address 0x0B ACK Protocol=Read word
6.348085750000000,SMBus,BatteryStatus 0xE0C0 OVER CHARGED ALARM=1, TERMINATE CHARGE ALARM=1, OVER TEMP ALARM=0, TERMINATE DISCHARGE ALARM=0, REMAINING CAPACITY ALARM=0, REMAINING TIME ALARM=0, INITIALIZED=1, DISCHARGING=1, FULLY CHARGED=0, FULLY DISCHARGED=0, ErrorCode=OK
6.348442166666667,SMBus,PEC 0xD3 OK
6.349978166666666,SMBus,Write address 0x0B ACK Protocol=Read word
6.350128333333333,SMBus,Command ChargingCurrent 0x14
6.350336000000000,SMBus,Read address 0x0B ACK Protocol=Read word
6.350537000000000,SMBus,Word 0x0000 ACK
6.350819000000000,SMBus,PEC 0xF2 OK
6.352470083333333,SMBus,Write address 0x0B ACK Protocol=Read word
6.352658583333334,SMBus,Command ChargingVoltage 0x15
6.352904583333333,SMBus,Read address 0x0B ACK Protocol=Read word
6.353132000000000,SMBus,Word 0x3831 ACK
6.353528083333333,SMBus,PEC 0x22 OK
6.357351666666666,SMBus,Write address 0x0B ACK Protocol=Read word
6.357540166666666,SMBus,Command Temperature 0x08
6.357747833333334,SMBus,Read address 0x0B ACK Protocol=Read word
6.357873666666666,SMBus,Word 0x920B ACK
6.358218000000000,SMBus,PEC 0x87 OK
6.359792416666667,SMBus,Write address 0x0B ACK Protocol=Read word
6.359942583333333,SMBus,Command <error> 0x3B
6.360150250000000,SMBus,Read address 0x0B ACK Protocol=Read word
6.360276583333333,SMBus,Word 0x920B ACK
6.360709416666666,SMBus,PEC 0x14 OK
6.362322666666667,SMBus,Write address 0x0B ACK Protocol=Read word
6.362472833333333,SMBus,Command Voltage 0x09
6.362680500000000,SMBus,Read address 0x0B ACK Protocol=Read word
6.362807000000000,SMBus,Word 0xBB30 ACK
6.363201750000000,SMBus,PEC 0x23 OK
6.364712333333333,SMBus,Write address 0x0B ACK Protocol=Read word
6.364862500000000,SMBus,Command RemainingCapacity 0x0F
6.365070083333333,SMBus,Read address 0x0B ACK Protocol=Read word
6.365196666666667,SMBus,Word 0x9515 ACK
6.365540333333334,SMBus,PEC 0xD4 OK
6.367204166666666,SMBus,Write address 0x0B ACK Protocol=Read word
6.367354333333333,SMBus,Command FullChargeCapacity 0x10
6.367600333333334,SMBus,Read address 0x0B ACK Protocol=Read word
6.367726166666666,SMBus,Word 0xA815 ACK
6.368146666666667,SMBus,PEC 0x71 OK
6.370386166666667,SMBus,Write address 0x0B ACK Protocol=Read word
6.370536333333333,SMBus,Command Current 0x0A
6.370744000000000,SMBus,Read address 0x0B ACK Protocol=Read word
6.370930666666666,SMBus,Word 0x0000 ACK
6.371264833333333,SMBus,PEC 0x51 OK
6.373146416666667,SMBus,Write address 0x0B ACK Protocol=Read word
6.373296583333333,SMBus,Command RunTimeToEmpty 0x11
6.373504250000000,SMBus,Read address 0x0B ACK Protocol=Read word
6.373630583333333,SMBus,Word 0xFFFF ACK
6.373987250000000,SMBus,PEC 0x98 OK
6.375561583333333,SMBus,Write address 0x0B ACK Protocol=Read word
6.375711750000000,SMBus,Command AverageCurrent 0x0B
6.375919416666667,SMBus,Read address 0x0B ACK Protocol=Read word
6.376107416666667,SMBus,Word 0x0000 ACK
6.376440666666666,SMBus,PEC 0x47 OK
6.377989583333333,SMBus,Write address 0x0B ACK Protocol=Read word
6.378139750000000,SMBus,Command AverageTimeToFull 0x13
6.378353833333334,SMBus,Read address 0x0B ACK Protocol=Read word
6.378486833333334,SMBus,Word 0xFFFF ACK
6.378856000000000,SMBus,PEC 0xB4 OK
6.380392083333334,SMBus,Write address 0x0B ACK Protocol=Read word
6.380542166666666,SMBus,Command AverageTimeToEmpty 0x12
6.380749833333334,SMBus,Read address 0x0B ACK Protocol=Read word
6.380876583333333,SMBus,Word 0xFFFF ACK
6.381232833333334,SMBus,PEC 0xA2 OK
6.383177833333334,SMBus,Write address 0x0B ACK Protocol=Read word
6.383328000000000,SMBus,Command CycleCount 0x17
6.383574000000000,SMBus,Read address 0x0B ACK Protocol=Read word
6.383700500000000,SMBus,Word 0xF100 ACK
6.384057000000000,SMBus,PEC 0xC9 OK
6.385618666666667,SMBus,Write address 0x0B ACK Protocol=Read word
6.385768833333334,SMBus,Command MaxError 0x0C
6.385976416666667,SMBus,Read address 0x0B ACK Protocol=Read word
6.386164166666667,SMBus,Word 0x0800 ACK
6.386446666666667,SMBus,PEC 0x8D OK
6.388059416666667,SMBus,Write address 0x0B ACK Protocol=Read word
6.388209583333333,SMBus,Command RelativeStateOfCharge 0x0D
6.388417250000000,SMBus,Read address 0x0B ACK Protocol=Read word
6.388607750000000,SMBus,Word 0x6400 ACK
6.388887416666667,SMBus,PEC 0x92 OK
6.390423500000000,SMBus,Write address 0x0B ACK Protocol=Block write
6.390573666666667,SMBus,Command ManufacturerData 0x23
6.390781333333333,SMBus,Read address 0x0B ACK Protocol=Block write
6.390991500000000,SMBus,Byte count 0x0C
6.391167666666667,SMBus,Byte 0x42 ACK
6.391346666666666,SMBus,Byte 0x0A ACK
6.391525666666666,SMBus,Byte 0x05 ACK
6.391704666666667,SMBus,Byte 0x12 ACK
6.391826583333334,SMBus,Byte 0x86 ACK
6.392061666666667,SMBus,Byte 0x0F ACK
6.392184416666667,SMBus,Byte 0x86 ACK
6.392419666666667,SMBus,Byte 0x0F ACK
6.392542250000000,SMBus,Byte 0x86 ACK
6.392777750000000,SMBus,Byte 0x0F ACK
6.392900000000000,SMBus,Byte 0x86 ACK
6.393135666666667,SMBus,Byte 0x0F ACK
6.393311833333334,SMBus,PEC 0x1B OK
6.394870583333334,SMBus,Write address 0x0B ACK Protocol=Block write
6.395020750000000,SMBus,Command <error> 0x30
6.395228416666667,SMBus,Read address 0x0B ACK Protocol=Block write
6.395439750000000,SMBus,Byte count 0x0A
6.395614916666666,SMBus,Byte 0x09 ACK
6.395736916666666,SMBus,Byte 0xEB ACK
6.395972916666667,SMBus,Byte 0x1A ACK
6.396094750000000,SMBus,Byte 0xC1 ACK
6.396330000000000,SMBus,Byte 0x09 ACK
6.396508916666667,SMBus,Byte 0x15 ACK
6.396688000000000,SMBus,Byte 0x00 ACK
6.396866916666666,SMBus,Byte 0x00 ACK
6.397045916666666,SMBus,Byte 0x00 ACK
6.397224916666667,SMBus,Byte 0x00 ACK
6.397401083333333,SMBus,PEC 0x5A OK
6.399253750000000,SMBus,Write address 0x0B ACK Protocol=Read word
6.399403916666667,SMBus,Command ManufacturerAccess 0x00
6.399611583333333,SMBus,Read address 0x0B ACK Protocol=Read word
6.399781500000000,SMBus,Word 0x1800 ACK
6.400132833333333,SMBus,PEC 0x32 OK
6.401745666666667,SMBus,Write address 0x0B ACK Protocol=Read word
6.401895750000000,SMBus,Command BatteryStatus 0x16
6.402103416666667,SMBus,Read address 0x0B ACK Protocol=Read word
6.402229833333333,SMBus,BatteryStatus 0xE0C0 OVER CHARGED ALARM=1, TERMINATE CHARGE ALARM=1, OVER TEMP ALARM=0, TERMINATE DISCHARGE ALARM=0, REMAINING CAPACITY ALARM=0, REMAINING TIME ALARM=0, INITIALIZED=1, DISCHARGING=1, FULLY CHARGED=0, FULLY DISCHARGED=0, ErrorCode=OK
6.402612000000000,SMBus,PEC 0xD3 OK
6.404237500000000,SMBus,Write address 0x0B ACK Protocol=Read word
6.404387666666667,SMBus,Command ChargingCurrent 0x14
6.404595333333333,SMBus,Read address 0x0B ACK Protocol=Read word
6.404796083333333,SMBus,Word 0x0000 ACK
6.405091083333334,SMBus,PEC 0xF2 OK
6.406767750000000,SMBus,Write address 0x0B ACK Protocol=Read word
6.406917916666667,SMBus,Command ChargingVoltage 0x15
6.407125583333333,SMBus,Read address 0x0B ACK Protocol=Read word
6.407327500000000,SMBus,Word 0x3831 ACK
6.407659750000000,SMBus,PEC 0x22 OK
6.409183000000000,SMBus,Write address 0x0B ACK Protocol=Read word
6.409333083333333,SMBus,Command Temperature 0x08
6.409540750000000,SMBus,Read address 0x0B ACK Protocol=Read word
6.409667000000000,SMBus,Word 0x920B ACK
6.410011000000000,SMBus,PEC 0x87 OK
6.411662083333334,SMBus,Write address 0x0B ACK Protocol=Read word
6.411812250000000,SMBus,Command <error> 0x3B
6.412019916666667,SMBus,Read address 0x0B ACK Protocol=Read word
6.412146250000000,SMBus,Word 0x920B ACK
6.412579000000000,SMBus,PEC 0x14 OK
6.414192333333333,SMBus,Write address 0x0B ACK Protocol=Read word
6.414342500000000,SMBus,Command Voltage 0x09
6.414550166666666,SMBus,Read address 0x0B ACK Protocol=Read word
6.414676833333333,SMBus,Word 0xBB30 ACK
6.415071583333333,SMBus,PEC 0x23 OK
6.416722583333334,SMBus,Write address 0x0B ACK Protocol=Read word
6.416872666666666,SMBus,Command RemainingCapacity 0x0F
6.417080333333334,SMBus,Read address 0x0B ACK Protocol=Read word
6.417206583333333,SMBus,Word 0x9515 ACK
6.417576166666667,SMBus,PEC 0xD4 OK
6.419137750000000,SMBus,Write address 0x0B ACK Protocol=Read word
6.419287916666667,SMBus,Command FullChargeCapacity 0x10
6.419533916666667,SMBus,Read address 0x0B ACK Protocol=Read word
6.419660000000000,SMBus,Word 0xA815 ACK
6.420068083333334,SMBus,PEC 0x71 OK
6.421668000000000,SMBus,Write address 0x0B ACK Protocol=Read word
6.421818166666666,SMBus,Command Current 0x0A
6.422025833333334,SMBus,Read address 0x0B ACK Protocol=Read word
6.422212166666666,SMBus,Word 0x0000 ACK
6.422547333333333,SMBus,PEC 0x51 OK
6.424159916666667,SMBus,Write address 0x0B ACK Protocol=Read word
6.424310000000000,SMBus,Command RunTimeToEmpty 0x11
6.424517666666667,SMBus,Read address 0x0B ACK Protocol=Read word
6.424644333333333,SMBus,Word 0xFFFF ACK
6.425000666666667,SMBus,PEC 0x98 OK
6.426702916666667,SMBus,Write address 0x0B ACK Protocol=Read word
6.426853000000000,SMBus,Command AverageCurrent 0x0B
6.427060666666667,SMBus,Read address 0x0B ACK Protocol=Read word
6.427248166666667,SMBus,Word 0x0000 ACK
6.427581416666666,SMBus,PEC 0x47 OK
6.429118083333333,SMBus,Write address 0x0B ACK Protocol=Read word
6.429268250000000,SMBus,Command AverageTimeToFull 0x13
6.429514250000000,SMBus,Read address 0x0B ACK Protocol=Read word
6.429640416666667,SMBus,Word 0xFFFF ACK
6.429997250000000,SMBus,PEC 0xB4 OK
6.431661083333333,SMBus,Write address 0x0B ACK Protocol=Read word
6.431811250000000,SMBus,Command AverageTimeToEmpty 0x12
6.432018916666666,SMBus,Read address 0x0B ACK Protocol=Read word
6.432145500000000,SMBus,Word 0xFFFF ACK
6.432501916666666,SMBus,PEC 0xA2 OK
6.434165750000000,SMBus,Write address 0x0B ACK Protocol=Read word
6.434315916666667,SMBus,Command CycleCount 0x17
6.434523583333333,SMBus,Read address 0x0B ACK Protocol=Read word
6.434649750000000,SMBus,Word 0xF100 ACK
6.435006583333333,SMBus,PEC 0xC9 OK
6.436683250000000,SMBus,Write address 0x0B ACK Protocol=Read word
6.436833333333333,SMBus,Command MaxError 0x0C
6.437041000000000,SMBus,Read address 0x0B ACK Protocol=Read word
6.437228583333333,SMBus,Word 0x0800 ACK
6.437511250000000,SMBus,PEC 0x8D OK
6.439098416666667,SMBus,Write address 0x0B ACK Protocol=Read word
6.439248583333334,SMBus,Command RelativeStateOfCharge 0x0D
6.439494583333333,SMBus,Read address 0x0B ACK Protocol=Read word
6.439685166666667,SMBus,Word 0x6400 ACK
6.439964833333334,SMBus,PEC 0x92 OK
6.441718083333333,SMBus,Write address 0x0B ACK Protocol=Block write
6.441868250000000,SMBus,Command ManufacturerData 0x23
6.442075916666667,SMBus,Read address 0x0B ACK Protocol=Block write
6.442286333333334,SMBus,Byte count 0x0C
6.442462416666666,SMBus,Byte 0x42 ACK
6.442641333333333,SMBus,Byte 0x0A ACK
6.442820250000000,SMBus,Byte 0x05 ACK
6.442999250000000,SMBus,Byte 0x12 ACK
6.443121166666667,SMBus,Byte 0x86 ACK
6.443356333333333,SMBus,Byte 0x0F ACK
6.443479000000000,SMBus,Byte 0x86 ACK
6.443714333333333,SMBus,Byte 0x0F ACK
6.443836833333333,SMBus,Byte 0x86 ACK
6.444072333333334,SMBus,Byte 0x0F ACK
6.444194666666666,SMBus,Byte 0x86 ACK
6.444430333333333,SMBus,Byte 0x0F ACK
6.444606416666667,SMBus,PEC 0x1B OK
6.446178000000000,SMBus,Write address 0x0B ACK Protocol=Block write
6.446328083333333,SMBus,Command <error> 0x30
6.446535750000000,SMBus,Read address 0x0B ACK Protocol=Block write
6.446747250000000,SMBus,Byte count 0x0A
6.446922500000000,SMBus,Byte 0x09 ACK
6.447044333333333,SMBus,Byte 0xEB ACK
6.447279583333334,SMBus,Byte 0x1D ACK
6.447392000000000,SMBus,Byte 0x60 NACK
6.447567833333333,SMBus,Byte 0x04 NACK
6.447746750000000,SMBus,Byte 0x0A NACK
6.447925666666666,SMBus,Byte 0x00 ACK
6.448107583333333,SMBus,Byte 0x00 ACK
6.448286500000000,SMBus,Byte 0x00 ACK
6.448465416666667,SMBus,Byte 0x00 ACK
6.448644333333333,SMBus,Bad PEC 0x2D should be 0x17
8.452196666666667,SMBus,Write address 0x0B ACK Protocol=Read word
8.452346833333333,SMBus,Command ManufacturerAccess 0x00
8.452554500000000,SMBus,Read address 0x0B ACK Protocol=Read word
8.452724999999999,SMBus,Word 0x1800 ACK
8.453075416666668,SMBus,PEC 0x32 OK
8.454701333333333,SMBus,Write address 0x0B ACK Protocol=Read word
8.454851500000000,SMBus,Command BatteryStatus 0x16
8.455059166666667,SMBus,Read address 0x0B ACK Protocol=Read word
8.455185166666666,SMBus,BatteryStatus 0xE0C0 OVER CHARGED ALARM=1, TERMINATE CHARGE ALARM=1, OVER TEMP ALARM=0, TERMINATE DISCHARGE ALARM=0, REMAINING CAPACITY ALARM=0, REMAINING TIME ALARM=0, INITIALIZED=1, DISCHARGING=1, FULLY CHARGED=0, FULLY DISCHARGED=0, ErrorCode=OK
8.455542166666667,SMBus,PEC 0xD3 OK
8.457116583333333,SMBus,Write address 0x0B ACK Protocol=Read word
8.457266750000000,SMBus,Command ChargingCurrent 0x14
8.457474416666667,SMBus,Read address 0x0B ACK Protocol=Read word
8.457675500000001,SMBus,Word 0x0000 ACK
8.457957416666666,SMBus,PEC 0xF2 OK
8.459621250000000,SMBus,Write address 0x0B ACK Protocol=Read word
8.459771416666667,SMBus,Command ChargingVoltage 0x15
8.459979083333334,SMBus,Read address 0x0B ACK Protocol=Read word
8.460180500000000,SMBus,Word 0x3831 ACK
8.460512749999999,SMBus,PEC 0x22 OK
8.462036416666667,SMBus,Write address 0x0B ACK Protocol=Read word
8.462186583333333,SMBus,Command Temperature 0x08
8.462394249999999,SMBus,Read address 0x0B ACK Protocol=Read word
8.462520333333334,SMBus,Word 0x920B ACK
8.462864500000000,SMBus,PEC 0x87 OK
8.464541166666667,SMBus,Write address 0x0B ACK Protocol=Read word
8.464691250000000,SMBus,Command <error> 0x3B
8.464898916666666,SMBus,Read address 0x0B ACK Protocol=Read word
8.465025583333333,SMBus,Word 0x920B ACK
8.465470833333333,SMBus,PEC 0x14 OK
8.467007416666666,SMBus,Write address 0x0B ACK Protocol=Read word
8.467157583333334,SMBus,Command Voltage 0x09
8.467384416666667,SMBus,Read address 0x0B ACK Protocol=Read word
8.467588416666667,SMBus,Word 0x7A30 ACK
8.467873833333334,SMBus,PEC 0xDB OK
8.469524916666666,SMBus,Write address 0x0B ACK Protocol=Read word
8.469675083333334,SMBus,Command RemainingCapacity 0x0F
8.469882750000000,SMBus,Read address 0x0B ACK Protocol=Read word
8.470009083333334,SMBus,Word 0x9515 ACK
8.470365749999999,SMBus,PEC 0xD4 OK
8.471952916666666,SMBus,Write address 0x0B ACK Protocol=Read word
8.472103083333334,SMBus,Command FullChargeCapacity 0x10
8.472310750000000,SMBus,Read address 0x0B ACK Protocol=Read word
8.472436999999999,SMBus,Word 0xA815 ACK
8.472845083333333,SMBus,PEC 0x71 OK
8.474495916666667,SMBus,Write address 0x0B ACK Protocol=Read word
8.474646083333333,SMBus,Command Current 0x0A
8.474872916666667,SMBus,Read address 0x0B ACK Protocol=Read word
8.475018250000000,SMBus,Word 0xE9FC ACK
8.475412916666667,SMBus,PEC 0x55 OK
8.476936666666667,SMBus,Write address 0x0B ACK Protocol=Read word
8.477086833333333,SMBus,Command RunTimeToEmpty 0x11
8.477294499999999,SMBus,Read address 0x0B ACK Protocol=Read word
8.477420833333333,SMBus,Word 0x8401 ACK
8.477828000000001,SMBus,PEC 0x59 OK
8.479454166666667,SMBus,Write address 0x0B ACK Protocol=Read word
8.479604250000000,SMBus,Command AverageCurrent 0x0B
8.479811916666666,SMBus,Read address 0x0B ACK Protocol=Read word
8.479938250000000,SMBus,Word 0xB7FC ACK
8.480294916666667,SMBus,PEC 0x99 OK
8.481863000000001,SMBus,Write address 0x0B ACK Protocol=Read word
8.482032250000000,SMBus,Command AverageTimeToFull 0x13
8.482239916666666,SMBus,Read address 0x0B ACK Protocol=Read word
8.482366250000000,SMBus,Word 0xFFFF ACK
8.482722916666667,SMBus,PEC 0xB4 OK
8.484425166666666,SMBus,Write address 0x0B ACK Protocol=Read word
8.484575250000001,SMBus,Command AverageTimeToEmpty 0x12
8.484782916666667,SMBus,Read address 0x0B ACK Protocol=Read word
8.484909083333333,SMBus,Word 0x8401 ACK
8.485317083333333,SMBus,PEC 0x63 OK
8.486846750000000,SMBus,Write address 0x0B ACK Protocol=Read word
8.487016083333334,SMBus,Command CycleCount 0x17
8.487223750000000,SMBus,Read address 0x0B ACK Protocol=Read word
8.487349999999999,SMBus,Word 0xF100 ACK
8.487706749999999,SMBus,PEC 0xC9 OK
8.489357833333333,SMBus,Write address 0x0B ACK Protocol=Read word
8.489507916666666,SMBus,Command MaxError 0x0C
8.489715583333334,SMBus,Read address 0x0B ACK Protocol=Read word
8.489902833333334,SMBus,Word 0x0800 ACK
8.490185833333333,SMBus,PEC 0x8D OK
8.491747416666668,SMBus,Write address 0x0B ACK Protocol=Read word
8.491897583333333,SMBus,Command RelativeStateOfCharge 0x0D
8.492105250000000,SMBus,Read address 0x0B ACK Protocol=Read word
8.492295666666667,SMBus,Word 0x6400 ACK
8.492575499999999,SMBus,PEC 0x92 OK
8.494277666666667,SMBus,Write address 0x0B ACK Protocol=Block write
8.494427833333333,SMBus,Command ManufacturerData 0x23
8.494635499999999,SMBus,Read address 0x0B ACK Protocol=Block write
8.494845666666667,SMBus,Byte count 0x0C
8.495021916666667,SMBus,Byte 0x42 ACK
8.495200916666667,SMBus,Byte 0x0A ACK
8.495379916666666,SMBus,Byte 0x05 ACK
8.495558916666667,SMBus,Byte 0x12 ACK
8.495680750000000,SMBus,Byte 0x86 ACK
8.495915999999999,SMBus,Byte 0x0F ACK
8.496038583333334,SMBus,Byte 0x86 ACK
8.496274083333333,SMBus,Byte 0x0F ACK
8.496396416666666,SMBus,Byte 0x86 ACK
8.496632166666666,SMBus,Byte 0x0F ACK
8.496754166666667,SMBus,Byte 0x86 ACK
8.496990250000000,SMBus,Byte 0x0F ACK
8.497165499999999,SMBus,PEC 0x1B OK
8.498724749999999,SMBus,Write address 0x0B ACK Protocol=Block write
8.498874916666667,SMBus,Command <error> 0x30
8.499082583333333,SMBus,Read address 0x0B ACK Protocol=Block write
8.499293833333333,SMBus,Byte count 0x0A
8.499468999999999,SMBus,Byte 0x09 ACK
8.499591083333334,SMBus,Byte 0xEB ACK
8.499827166666666,SMBus,Byte 0x1A ACK
8.499948916666666,SMBus,Byte 0xC1 ACK
8.500184250000000,SMBus,Byte 0x09 ACK
8.500363249999999,SMBus,Byte 0x15 ACK
8.500542333333334,SMBus,Byte 0x00 ACK
8.500721333333333,SMBus,Byte 0x00 ACK
8.500900333333334,SMBus,Byte 0x00 ACK
8.501079333333333,SMBus,Byte 0x00 ACK
8.501255499999999,SMBus,PEC 0x5A OK
10.504637166666667,SMBus,Write address 0x0B ACK Protocol=Read word
10.504787333333333,SMBus,Command ManufacturerAccess 0x00
10.504994999999999,SMBus,Read address 0x0B ACK Protocol=Read word
10.505165333333334,SMBus,Word 0x1800 ACK
10.505515750000001,SMBus,PEC 0x32 OK
10.507129083333334,SMBus,Write address 0x0B ACK Protocol=Read word
10.507279250000000,SMBus,Command AverageCurrent 0x0B
10.507486916666666,SMBus,Read address 0x0B ACK Protocol=Read word
10.507612833333333,SMBus,Word 0xE0C0 ACK
10.507969916666667,SMBus,Bad PEC 0xD3 should be 0x4A
10.509557083333334,SMBus,Write address 0x0B ACK Protocol=Read word
10.509707250000000,SMBus,Command ChargingCurrent 0x14
10.509914916666666,SMBus,Read address 0x0B ACK Protocol=Read word
10.510115916666667,SMBus,Word 0x0000 ACK
10.510397916666667,SMBus,PEC 0xF2 OK
10.512100083333333,SMBus,Write address 0x0B ACK Protocol=Read word
10.512250249999999,SMBus,Command ChargingVoltage 0x15
10.512457916666667,SMBus,Read address 0x0B ACK Protocol=Read word
10.512659250000000,SMBus,Word 0x3831 ACK
10.513004916666667,SMBus,PEC 0x22 OK
10.514540833333333,SMBus,Write address 0x0B ACK Protocol=Read word
10.514690999999999,SMBus,Command Temperature 0x08
10.514898666666667,SMBus,Read address 0x0B ACK Protocol=Read word
10.515024833333333,SMBus,Word 0x920B ACK
10.515368916666667,SMBus,PEC 0x87 OK
10.517045500000000,SMBus,Write address 0x0B ACK Protocol=Read word
10.517195666666666,SMBus,Command <error> 0x3B
10.517403333333334,SMBus,Read address 0x0B ACK Protocol=Read word
10.517529916666666,SMBus,Word 0x920B ACK
10.517976083333334,SMBus,PEC 0x14 OK
10.519499083333333,SMBus,Write address 0x0B ACK Protocol=Read word
10.519649250000001,SMBus,Command Voltage 0x09
10.519882416666666,SMBus,Read address 0x0B ACK Protocol=Read word
10.520067500000000,SMBus,Word 0x7930 ACK
10.520352666666666,SMBus,PEC 0xE4 OK
10.522054833333334,SMBus,Write address 0x0B ACK Protocol=Read word
10.522205000000000,SMBus,Command RemainingCapacity 0x0F
10.522412666666666,SMBus,Read address 0x0B ACK Protocol=Read word
10.522538916666667,SMBus,Word 0x9415 ACK
10.522895666666667,SMBus,PEC 0xC1 OK
10.524470083333334,SMBus,Write address 0x0B ACK Protocol=Read word
10.524620250000000,SMBus,Command FullChargeCapacity 0x10
10.524827916666666,SMBus,Read address 0x0B ACK Protocol=Read word
10.524954583333333,SMBus,Word 0xA815 ACK
10.525375166666667,SMBus,PEC 0x71 OK
10.527013083333333,SMBus,Write address 0x0B ACK Protocol=Read word
10.527163249999999,SMBus,Command Current 0x0A
10.527370916666667,SMBus,Read address 0x0B ACK Protocol=Read word
10.527496916666667,SMBus,Word 0xEDFC ACK
10.527892583333333,SMBus,PEC 0x01 OK
10.529415500000001,SMBus,Write address 0x0B ACK Protocol=Read word
10.529565666666667,SMBus,Command RunTimeToEmpty 0x11
10.529792499999999,SMBus,Read address 0x0B ACK Protocol=Read word
10.529937583333334,SMBus,Word 0x8501 ACK
10.530345666666667,SMBus,PEC 0x4C OK
10.531984083333333,SMBus,Write address 0x0B ACK Protocol=Read word
10.532134250000000,SMBus,Command AverageCurrent 0x0B
10.532380249999999,SMBus,Read address 0x0B ACK Protocol=Read word
10.532506000000000,SMBus,Word 0xEDFC ACK
10.532901750000001,SMBus,PEC 0x17 OK
10.534437666666667,SMBus,Write address 0x0B ACK Protocol=Read word
10.534587750000000,SMBus,Command AverageTimeToFull 0x13
10.534795416666666,SMBus,Read address 0x0B ACK Protocol=Read word
10.534921833333334,SMBus,Word 0xFFFF ACK
10.535278416666667,SMBus,PEC 0xB4 OK
10.536942333333334,SMBus,Write address 0x0B ACK Protocol=Read word
10.537092416666667,SMBus,Command AverageTimeToEmpty 0x12
10.537300083333333,SMBus,Read address 0x0B ACK Protocol=Read word
10.537426166666666,SMBus,Word 0x8501 ACK
10.537834250000000,SMBus,PEC 0x76 OK
10.539357499999999,SMBus,Write address 0x0B ACK Protocol=Read word
10.539507666666667,SMBus,Command CycleCount 0x17
10.539715333333334,SMBus,Read address 0x0B ACK Protocol=Read word
10.539841166666667,SMBus,Word 0xF100 ACK
10.540211083333332,SMBus,PEC 0xC9 OK
10.541900500000001,SMBus,Write address 0x0B ACK Protocol=Read word
10.542050666666666,SMBus,Command MaxError 0x0C
10.542277500000001,SMBus,Read address 0x0B ACK Protocol=Read word
10.542484333333332,SMBus,Word 0x0800 ACK
10.542766916666666,SMBus,PEC 0x8D OK
10.544481833333334,SMBus,Write address 0x0B ACK Protocol=Read word
10.544632000000000,SMBus,Command RelativeStateOfCharge 0x0D
10.544865250000001,SMBus,Read address 0x0B ACK Protocol=Read word
10.545055583333333,SMBus,Word 0x6400 ACK
10.545335416666667,SMBus,PEC 0x92 OK
10.556634666666667,SMBus,Write address 0x0B ACK Protocol=Block write
10.556784750000000,SMBus,Command ManufacturerData 0x23
10.556992416666667,SMBus,Read address 0x0B ACK Protocol=Block write
10.557203166666667,SMBus,Byte count 0x0C
10.557378416666667,SMBus,Byte 0x42 ACK
10.557557416666667,SMBus,Byte 0x0A ACK
10.557736500000001,SMBus,Byte 0x05 ACK
10.557915500000000,SMBus,Byte 0x12 ACK
10.558037750000000,SMBus,Byte 0x86 ACK
10.558273500000000,SMBus,Byte 0x0F ACK
10.558408333333333,SMBus,Byte 0x86 ACK
10.558643916666666,SMBus,Byte 0x0F ACK
10.558766083333333,SMBus,Byte 0x86 ACK
10.559001916666666,SMBus,Byte 0x0F ACK
10.559123916666667,SMBus,Byte 0x86 ACK
10.559359083333334,SMBus,Byte 0x0F ACK
10.559535250000000,SMBus,PEC 0x1B OK
10.561094499999999,SMBus,Write address 0x0B ACK Protocol=Block write
10.561295749999999,SMBus,Command <error> 0x30
10.561503416666667,SMBus,Read address 0x0B ACK Protocol=Block write
10.561714666666667,SMBus,Byte count 0x0A
10.561889833333334,SMBus,Byte 0x09 ACK
10.562011999999999,SMBus,Byte 0xEB ACK
10.562247833333334,SMBus,Byte 0x1A ACK
10.562369750000000,SMBus,Byte 0xC1 ACK
10.562605000000000,SMBus,Byte 0x09 ACK
10.562784083333334,SMBus,Byte 0x15 ACK
10.562963083333333,SMBus,Byte 0x00 ACK
10.563142166666667,SMBus,Byte 0x00 ACK
10.563321250000000,SMBus,Byte 0x00 ACK
10.563500250000001,SMBus,Byte 0x00 ACK
10.563675416666667,SMBus,PEC 0x5A OK
12.567068583333333,SMBus,Write address 0x0B ACK Protocol=Read word
12.567218666666667,SMBus,Command ManufacturerAccess 0x00
12.567426333333334,SMBus,Read address 0x0B ACK Protocol=Read word
12.567596999999999,SMBus,Word 0x1800 ACK
12.567947416666666,SMBus,PEC 0x32 OK
12.569585999999999,SMBus,Write address 0x0B ACK Protocol=Read word
12.569774499999999,SMBus,Command BatteryStatus 0x16
12.569982166666666,SMBus,Read address 0x0B ACK Protocol=Read word
12.570108166666667,SMBus,BatteryStatus 0xE0C0 OVER CHARGED ALARM=1, TERMINATE CHARGE ALARM=1, OVER TEMP ALARM=0, TERMINATE DISCHARGE ALARM=0, REMAINING CAPACITY ALARM=0, REMAINING TIME ALARM=0, INITIALIZED=1, DISCHARGING=1, FULLY CHARGED=0, FULLY DISCHARGED=0, ErrorCode=OK
12.570465166666667,SMBus,PEC 0xD3 OK
12.572039583333334,SMBus,Write address 0x0B ACK Protocol=Read word
12.572189666666667,SMBus,Command ChargingCurrent 0x14
12.572397333333333,SMBus,Read address 0x0B ACK Protocol=Read word
12.572598416666667,SMBus,Word 0x0000 ACK
12.572905916666667,SMBus,PEC 0xF2 OK
12.574569833333333,SMBus,Write address 0x0B ACK Protocol=Read word
12.574719916666666,SMBus,Command ChargingVoltage 0x15
12.574927583333332,SMBus,Read address 0x0B ACK Protocol=Read word
12.575129166666667,SMBus,Word 0x3831 ACK
12.575474750000000,SMBus,PEC 0x22 OK
12.577023333333333,SMBus,Write address 0x0B ACK Protocol=Read word
12.577173500000001,SMBus,Command Temperature 0x08
12.577381166666667,SMBus,Read address 0x0B ACK Protocol=Read word
12.577507750000001,SMBus,Word 0x920B ACK
12.577851333333333,SMBus,PEC 0x87 OK
12.579553583333333,SMBus,Write address 0x0B ACK Protocol=Read word
12.579703750000000,SMBus,Command <error> 0x3B
12.579911333333333,SMBus,Read address 0x0B ACK Protocol=Read word
12.580037416666666,SMBus,Word 0x920B ACK
12.580471166666667,SMBus,PEC 0x14 OK
12.582007083333334,SMBus,Write address 0x0B ACK Protocol=Read word
12.582157250000000,SMBus,Command Voltage 0x09
12.582364916666666,SMBus,Read address 0x0B ACK Protocol=Read word
12.582549416666666,SMBus,Word 0x7830 ACK
12.582835166666667,SMBus,PEC 0xF1 OK
12.584511833333334,SMBus,Write address 0x0B ACK Protocol=Read word
12.584661916666667,SMBus,Command RemainingCapacity 0x0F
12.584869583333333,SMBus,Read address 0x0B ACK Protocol=Read word
12.584995916666667,SMBus,Word 0x9415 ACK
12.585365333333334,SMBus,PEC 0xC1 OK
12.586965333333334,SMBus,Write address 0x0B ACK Protocol=Read word
12.587115499999999,SMBus,Command FullChargeCapacity 0x10
12.587323166666666,SMBus,Read address 0x0B ACK Protocol=Read word
12.587449416666667,SMBus,Word 0xA815 ACK
12.587857416666667,SMBus,PEC 0x71 OK
12.589495583333333,SMBus,Write address 0x0B ACK Protocol=Read word
12.589645750000001,SMBus,Command Current 0x0A
12.589853333333334,SMBus,Read address 0x0B ACK Protocol=Read word
12.589979916666667,SMBus,Word 0xF4FC ACK
12.590323583333333,SMBus,PEC 0xEB OK
12.591936333333333,SMBus,Write address 0x0B ACK Protocol=Read word
12.592086500000001,SMBus,Command RunTimeToEmpty 0x11
12.592294166666667,SMBus,Read address 0x0B ACK Protocol=Read word
12.592420250000000,SMBus,Word 0x8901 ACK
12.592777166666666,SMBus,PEC 0xB0 OK
12.594453833333333,SMBus,Write address 0x0B ACK Protocol=Read word
12.594603916666667,SMBus,Command AverageCurrent 0x0B
12.594811583333334,SMBus,Read address 0x0B ACK Protocol=Read word
12.594938333333333,SMBus,Word 0xF4FC ACK
12.595294583333333,SMBus,PEC 0xFD OK
12.596881750000000,SMBus,Write address 0x0B ACK Protocol=Read word
12.597031916666667,SMBus,Command AverageTimeToFull 0x13
12.597239583333334,SMBus,Read address 0x0B ACK Protocol=Read word
12.597366250000000,SMBus,Word 0xFFFF ACK
12.597722583333333,SMBus,PEC 0xB4 OK
12.599424750000001,SMBus,Write address 0x0B ACK Protocol=Read word
12.599574916666667,SMBus,Command AverageTimeToEmpty 0x12
12.599820916666667,SMBus,Read address 0x0B ACK Protocol=Read word
12.599946833333334,SMBus,Word 0x8901 ACK
12.600316749999999,SMBus,PEC 0x8A OK
12.601916666666666,SMBus,Write address 0x0B ACK Protocol=Read word
12.602066833333334,SMBus,Command CycleCount 0x17
12.602300083333333,SMBus,Read address 0x0B ACK Protocol=Read word
12.602426166666667,SMBus,Word 0xF100 ACK
12.602783083333334,SMBus,PEC 0xC9 OK
12.604472500000000,SMBus,Write address 0x0B ACK Protocol=Read word
12.604622583333333,SMBus,Command MaxError 0x0C
12.604830249999999,SMBus,Read address 0x0B ACK Protocol=Read word
12.605017416666668,SMBus,Word 0x0800 ACK
12.605300500000000,SMBus,PEC 0x8D OK
12.606900500000000,SMBus,Write address 0x0B ACK Protocol=Read word
12.607050583333333,SMBus,Command RelativeStateOfCharge 0x0D
12.607283833333334,SMBus,Read address 0x0B ACK Protocol=Read word
12.607474083333333,SMBus,Word 0x6400 ACK
12.607754083333333,SMBus,PEC 0x92 OK
12.609481833333334,SMBus,Write address 0x0B ACK Protocol=Block write
12.609631916666666,SMBus,Command ManufacturerData 0x23
12.609839583333333,SMBus,Read address 0x0B ACK Protocol=Block write
12.610050416666667,SMBus,Byte count 0x0C
12.610225666666667,SMBus,Byte 0x42 ACK
12.610404583333333,SMBus,Byte 0x0A ACK
12.610583583333334,SMBus,Byte 0x05 ACK
12.610762583333333,SMBus,Byte 0x12 ACK
12.610884916666667,SMBus,Byte 0x86 ACK
12.611120666666666,SMBus,Byte 0x0F ACK
12.611242666666667,SMBus,Byte 0x86 ACK
12.611478666666667,SMBus,Byte 0x0F ACK
12.611600500000000,SMBus,Byte 0x86 ACK
12.611835749999999,SMBus,Byte 0x0F ACK
12.611958333333334,SMBus,Byte 0x86 ACK
12.612193749999999,SMBus,Byte 0x0F ACK
12.612369916666667,SMBus,PEC 0x1B OK
12.614056666666666,SMBus,Write address 0x0B ACK Protocol=Block write
12.614206833333334,SMBus,Command <error> 0x30
12.614414500000001,SMBus,Read address 0x0B ACK Protocol=Block write
12.614625583333334,SMBus,Byte count 0x0A
12.614800750000001,SMBus,Byte 0x09 ACK
12.614922999999999,SMBus,Byte 0xEB ACK
12.615158750000001,SMBus,Byte 0x1A ACK
12.615280833333333,SMBus,Byte 0xC1 ACK
12.615516666666666,SMBus,Byte 0x09 ACK
12.615695750000000,SMBus,Byte 0x15 ACK
12.615873750000000,SMBus,Byte 0x00 ACK
12.616052750000000,SMBus,Byte 0x00 ACK
12.616231666666666,SMBus,Byte 0x00 ACK
12.616410750000000,SMBus,Byte 0x00 ACK
12.616586916666666,SMBus,PEC 0x5A OK
14.620507666666667,SMBus,Write address 0x0B ACK Protocol=Read word
14.620657833333333,SMBus,Command ManufacturerAccess 0x00
14.620865500000001,SMBus,Read address 0x0B ACK Protocol=Read word
14.621035750000001,SMBus,Word 0x1800 ACK
14.621399416666666,SMBus,PEC 0x32 OK
14.623203999999999,SMBus,Write address 0x0B ACK Protocol=Read word
14.623354166666667,SMBus,Command BatteryStatus 0x16
14.623561833333333,SMBus,Read address 0x0B ACK Protocol=Read word
14.623688500000000,SMBus,BatteryStatus 0xE0C0 OVER CHARGED ALARM=1, TERMINATE CHARGE ALARM=1, OVER TEMP ALARM=0, TERMINATE DISCHARGE ALARM=0, REMAINING CAPACITY ALARM=0, REMAINING TIME ALARM=0, INITIALIZED=1, DISCHARGING=1, FULLY CHARGED=0, FULLY DISCHARGED=0, ErrorCode=OK
14.624057583333334,SMBus,PEC 0xD3 OK
14.625619250000000,SMBus,Write address 0x0B ACK Protocol=Read word
14.625769416666667,SMBus,Command ChargingCurrent 0x14
14.625977083333334,SMBus,Read address 0x0B ACK Protocol=Read word
14.626178333333334,SMBus,Word 0x0000 ACK
14.626460083333333,SMBus,PEC 0xF2 OK
14.628072749999999,SMBus,Write address 0x0B ACK Protocol=Read word
14.628222916666667,SMBus,Command ChargingVoltage 0x15
14.628430583333333,SMBus,Read address 0x0B ACK Protocol=Read word
14.628632833333333,SMBus,Word 0x3831 ACK
14.628964166666666,SMBus,PEC 0x22 OK
14.630513583333334,SMBus,Write address 0x0B ACK Protocol=Read word
14.630702083333333,SMBus,Command Temperature 0x08
14.630909666666666,SMBus,Read address 0x0B ACK Protocol=Read word
14.631036249999999,SMBus,Word 0x920B ACK
14.631379916666667,SMBus,PEC 0x87 OK
14.633273833333334,SMBus,Write address 0x0B ACK Protocol=Read word
14.633423916666667,SMBus,Command <error> 0x3B
14.633631583333333,SMBus,Read address 0x0B ACK Protocol=Read word
14.633758250000000,SMBus,Word 0x920B ACK
14.634203500000000,SMBus,PEC 0x14 OK
14.635778500000001,SMBus,Write address 0x0B ACK Protocol=Read word
14.635928666666667,SMBus,Command Voltage 0x09
14.636136250000000,SMBus,Read address 0x0B ACK Protocol=Read word
14.636320916666667,SMBus,Word 0x7630 ACK
14.636657916666667,SMBus,PEC 0x27 OK
14.638168166666667,SMBus,Write address 0x0B ACK Protocol=Read word
14.638318249999999,SMBus,Command RemainingCapacity 0x0F
14.638525916666667,SMBus,Read address 0x0B ACK Protocol=Read word
14.638652083333334,SMBus,Word 0x9315 ACK
14.639008916666667,SMBus,PEC 0xAA OK
14.640583333333334,SMBus,Write address 0x0B ACK Protocol=Read word
14.640733500000000,SMBus,Command FullChargeCapacity 0x10
14.640941166666666,SMBus,Read address 0x0B NACK Protocol=Read word
14.641054166666667,SMBus,Word 0x540A ACK
14.641411000000000,SMBus,Bad PEC 0x38 should be 0xC4
14.643318083333334,SMBus,Write address 0x0B ACK Protocol=Read word
14.643468166666667,SMBus,Command Current 0x0A
14.643675833333333,SMBus,Read address 0x0B ACK Protocol=Read word
14.643801666666667,SMBus,Word 0xFAFC ACK
14.644197333333333,SMBus,PEC 0x3D OK
14.645758833333334,SMBus,Write address 0x0B ACK Protocol=Read word
14.645909000000000,SMBus,Command RunTimeToEmpty 0x11
14.646116583333333,SMBus,Read address 0x0B ACK Protocol=Read word
14.646242916666667,SMBus,Word 0x8C01 ACK
14.646599666666667,SMBus,PEC 0xF1 OK
14.648167666666666,SMBus,Write address 0x0B ACK Protocol=Read word
14.648337000000000,SMBus,Command AverageCurrent 0x0B
14.648544666666666,SMBus,Read address 0x0B ACK Protocol=Read word
14.648670916666667,SMBus,Word 0xFAFC ACK
14.649065666666667,SMBus,PEC 0x2B OK
14.650589249999999,SMBus,Write address 0x0B ACK Protocol=Read word
14.650739416666667,SMBus,Command AverageTimeToFull 0x13
14.650947083333334,SMBus,Read address 0x0B ACK Protocol=Read word
14.651072916666667,SMBus,Word 0xFFFF ACK
14.651430083333333,SMBus,PEC 0xB4 OK
14.653336749999999,SMBus,Write address 0x0B ACK Protocol=Read word
14.653486833333334,SMBus,Command AverageTimeToEmpty 0x12
14.653720083333333,SMBus,Read address 0x0B ACK Protocol=Read word
14.653846333333334,SMBus,Word 0x8C01 ACK
14.654203083333334,SMBus,PEC 0xCB OK
14.655815833333333,SMBus,Write address 0x0B ACK Protocol=Read word
14.655965999999999,SMBus,Command CycleCount 0x17
14.656173666666668,SMBus,Read address 0x0B ACK Protocol=Read word
14.656299416666666,SMBus,Word 0xF100 ACK
14.656669416666666,SMBus,PEC 0xC9 OK
14.658473833333334,SMBus,Write address 0x0B ACK Protocol=Read word
14.658624000000000,SMBus,Command MaxError 0x0C
14.658831666666666,SMBus,Read address 0x0B ACK Protocol=Read word
14.659019250000000,SMBus,Word 0x0800 ACK
14.659301916666667,SMBus,PEC 0x8D OK
14.660876249999999,SMBus,Write address 0x0B ACK Protocol=Read word
14.661026416666667,SMBus,Command RelativeStateOfCharge 0x0D
14.661234083333333,SMBus,Read address 0x0B ACK Protocol=Read word
14.661424500000001,SMBus,Word 0x6400 ACK
14.661704333333333,SMBus,PEC 0x92 OK
14.663559833333334,SMBus,Write address 0x0B ACK Protocol=Block write
14.663710000000000,SMBus,Command ManufacturerData 0x23
14.663917666666666,SMBus,Read address 0x0B ACK Protocol=Block write
14.664127833333334,SMBus,Byte count 0x0C
14.664303916666666,SMBus,Byte 0x42 ACK
14.664483000000001,SMBus,Byte 0x0A ACK
14.664661916666667,SMBus,Byte 0x05 ACK
14.664840999999999,SMBus,Byte 0x12 ACK
14.664962916666667,SMBus,Byte 0x86 ACK
14.665198916666666,SMBus,Byte 0x0F ACK
14.665320749999999,SMBus,Byte 0x86 ACK
14.665555916666667,SMBus,Byte 0x0F ACK
14.665678583333333,SMBus,Byte 0x86 ACK
14.665913916666666,SMBus,Byte 0x0F ACK
14.666036416666667,SMBus,Byte 0x86 ACK
14.666271833333333,SMBus,Byte 0x0F ACK
14.666447916666666,SMBus,PEC 0x1B OK
14.668032500000001,SMBus,Write address 0x0B ACK Protocol=Block write
14.668182666666667,SMBus,Command <error> 0x30
14.668390250000000,SMBus,Read address 0x0B ACK Protocol=Block write
14.668601333333333,SMBus,Byte count 0x0A
14.668776500000000,SMBus,Byte 0x09 ACK
14.668898833333333,SMBus,Byte 0xEB ACK
14.669134416666667,SMBus,Byte 0x1A ACK
14.669256666666667,SMBus,Byte 0xC1 ACK
14.669492416666667,SMBus,Byte 0x09 ACK
14.669671416666667,SMBus,Byte 0x15 ACK
14.669850416666666,SMBus,Byte 0x00 ACK
14.670029416666667,SMBus,Byte 0x00 ACK
14.670207416666667,SMBus,Byte 0x00 ACK
14.670386416666666,SMBus,Byte 0x00 ACK
14.670562583333334,SMBus,PEC 0x5A OK
16.674031500000002,SMBus,Write address 0x0B ACK Protocol=Read word
16.674181583333333,SMBus,Command ManufacturerAccess 0x00
16.674389250000001,SMBus,Read address 0x0B ACK Protocol=Read word
16.674560000000000,SMBus,Word 0x1800 ACK
16.674897999999999,SMBus,PEC 0x32 OK
16.676446666666667,SMBus,Write address 0x0B ACK Protocol=Read word
16.676596833333335,SMBus,Command BatteryStatus 0x16
16.676804499999999,SMBus,Read address 0x0B ACK Protocol=Read word
16.676931083333333,SMBus,BatteryStatus 0xE0C0 OVER CHARGED ALARM=1, TERMINATE CHARGE ALARM=1, OVER TEMP ALARM=0, TERMINATE DISCHARGE ALARM=0, REMAINING CAPACITY ALARM=0, REMAINING TIME ALARM=0, INITIALIZED=1, DISCHARGING=1, FULLY CHARGED=0, FULLY DISCHARGED=0, ErrorCode=OK
16.677287499999998,SMBus,PEC 0xD3 OK
16.678976916666667,SMBus,Write address 0x0B ACK Protocol=Read word
16.679127083333334,SMBus,Command ChargingCurrent 0x14
16.679334749999999,SMBus,Read address 0x0B ACK Protocol=Read word
16.679535416666667,SMBus,Word 0x0000 ACK
16.679830500000001,SMBus,PEC 0xF2 OK
16.681417666666668,SMBus,Write address 0x0B ACK Protocol=Read word
16.681567833333332,SMBus,Command ChargingVoltage 0x15
16.681775500000001,SMBus,Read address 0x0B ACK Protocol=Read word
16.681977416666665,SMBus,Word 0x3831 ACK
16.682322166666665,SMBus,PEC 0x22 OK
16.683986250000000,SMBus,Write address 0x0B ACK Protocol=Read word
16.684136416666668,SMBus,Command Temperature 0x08
16.684344083333333,SMBus,Read address 0x0B ACK Protocol=Read word
16.684470250000000,SMBus,Word 0x920B ACK
16.684814249999999,SMBus,PEC 0x87 OK
16.686401499999999,SMBus,Write address 0x0B ACK Protocol=Read word
16.686551583333333,SMBus,Command <error> 0x3B
16.686759250000001,SMBus,Read address 0x0B ACK Protocol=Read word
16.686885583333332,SMBus,Word 0x920B ACK
16.687261083333333,SMBus,Bad PEC 0x0A should be 0x14
16.688944500000002,SMBus,Write address 0x0B ACK Protocol=Read word
16.689133000000002,SMBus,Command Voltage 0x09
16.689340666666666,SMBus,Read address 0x0B ACK Protocol=Read word
16.689525249999999,SMBus,Word 0x7330 ACK
16.689861416666666,SMBus,PEC 0x66 OK
16.691423583333332,SMBus,Write address 0x0B ACK Protocol=Read word
16.691573750000000,SMBus,Command RemainingCapacity 0x0F
16.691781416666668,SMBus,Read address 0x0B ACK Protocol=Read word
16.691907666666665,SMBus,Word 0x9315 ACK
16.692264416666667,SMBus,PEC 0xAA OK
16.693992166666668,SMBus,Write address 0x0B ACK Protocol=Read word
16.694142333333332,SMBus,Command FullChargeCapacity 0x10
16.694349916666667,SMBus,Read address 0x0B ACK Protocol=Read word
16.694476666666667,SMBus,Word 0xA815 ACK
16.694883666666666,SMBus,PEC 0x71 OK
16.696432916666666,SMBus,Write address 0x0B ACK Protocol=Read word
16.696621416666666,SMBus,Command Current 0x0A
16.696829083333334,SMBus,Read address 0x0B ACK Protocol=Read word
16.696955666666668,SMBus,Word 0xFBFC ACK
16.697350416666666,SMBus,PEC 0x28 OK
16.698975916666665,SMBus,Write address 0x0B ACK Protocol=Read word
16.699126083333333,SMBus,Command RunTimeToEmpty 0x11
16.699333750000001,SMBus,Read address 0x0B ACK Protocol=Read word
16.699459749999999,SMBus,Word 0x8C01 ACK
16.699816750000000,SMBus,PEC 0xF1 OK
16.701429500000000,SMBus,Write address 0x0B ACK Protocol=Read word
16.701618000000000,SMBus,Command AverageCurrent 0x0B
16.701825666666668,SMBus,Read address 0x0B ACK Protocol=Read word
16.701952250000001,SMBus,Word 0xFBFC ACK
16.702347000000000,SMBus,PEC 0x3E OK
16.704355833333334,SMBus,Write address 0x0B ACK Protocol=Read word
16.704505999999999,SMBus,Command AverageTimeToFull 0x13
16.704713666666667,SMBus,Read address 0x0B ACK Protocol=Read word
16.704839916666668,SMBus,Word 0xFFFF ACK
16.705196666666666,SMBus,PEC 0xB4 OK
16.706783833333333,SMBus,Write address 0x0B ACK Protocol=Read word
16.706934000000000,SMBus,Command AverageTimeToEmpty 0x12
16.707180000000001,SMBus,Read address 0x0B ACK Protocol=Read word
16.707305999999999,SMBus,Word 0x8C01 ACK
16.707663000000000,SMBus,PEC 0xCB OK
16.709339666666665,SMBus,Write address 0x0B ACK Protocol=Read word
16.709489749999999,SMBus,Command CycleCount 0x17
16.709697416666668,SMBus,Read address 0x0B ACK Protocol=Read word
16.709823333333333,SMBus,Word 0xF100 ACK
16.710180416666667,SMBus,PEC 0xC9 OK
16.711767666666667,SMBus,Write address 0x0B ACK Protocol=Read word
16.711917750000001,SMBus,Command MaxError 0x0C
16.712150999999999,SMBus,Read address 0x0B ACK Protocol=Read word
16.712338666666668,SMBus,Word 0x0800 ACK
16.712621250000002,SMBus,PEC 0x8D OK
16.714285083333333,SMBus,Write address 0x0B ACK Protocol=Read word
16.714435250000001,SMBus,Command RelativeStateOfCharge 0x0D
16.714681250000002,SMBus,Read address 0x0B ACK Protocol=Read word
16.714871166666665,SMBus,Word 0x6400 ACK
16.715151416666668,SMBus,PEC 0x92 OK
16.717313666666666,SMBus,Read address 0x0B ACK
16.717427166666667,SMBus,Bad PEC 0x11 should be 0x65
16.717671500000002,SMBus,Read address 0x0B ACK
16.717882166666666,SMBus,Byte 0x0C ACK
16.718057333333334,SMBus,Byte 0x42 ACK
16.718236416666667,SMBus,Byte 0x0A ACK
16.718415416666666,SMBus,Byte 0x05 ACK
16.718594499999998,SMBus,Byte 0x12 ACK
16.718729583333332,SMBus,Byte 0x86 ACK
16.718964833333334,SMBus,Byte 0x0F ACK
16.719087333333334,SMBus,Byte 0x86 ACK
16.719322833333333,SMBus,Byte 0x0F ACK
16.719445166666667,SMBus,Byte 0x86 ACK
16.719680833333335,SMBus,Byte 0x0F ACK
16.719802999999999,SMBus,Byte 0x86 ACK
16.720038833333334,SMBus,Byte 0x0F ACK
16.720214916666666,SMBus,Bad PEC 0x1B should be 0x2D
16.721773500000001,SMBus,Write address 0x0B ACK Protocol=Block write
16.721923666666665,SMBus,Command <error> 0x30
16.722156916666666,SMBus,Read address 0x0B ACK Protocol=Block write
16.722368500000002,SMBus,Byte count 0x0A
16.722543666666667,SMBus,Byte 0x09 ACK
16.722665500000002,SMBus,Byte 0xEB ACK
16.722900666666668,SMBus,Byte 0x1A ACK
16.723023250000001,SMBus,Byte 0xC1 ACK
16.723258583333333,SMBus,Byte 0x09 ACK
16.723437583333332,SMBus,Byte 0x15 ACK
16.723616583333332,SMBus,Byte 0x00 ACK
16.723795583333334,SMBus,Byte 0x00 ACK
16.723974500000001,SMBus,Byte 0x00 ACK
16.724153500000000,SMBus,Byte 0x00 ACK
16.724329666666666,SMBus,PEC 0x5A OK
18.728373083333334,SMBus,Write address 0x0B ACK Protocol=Read word
18.728523249999999,SMBus,Command ManufacturerAccess 0x00
18.728730833333334,SMBus,Read address 0x0B ACK Protocol=Read word
18.728901250000000,SMBus,Word 0x1800 ACK
18.729251583333333,SMBus,PEC 0x32 OK
18.730762750000000,SMBus,Write address 0x0B ACK Protocol=Read word
18.730912833333335,SMBus,Command BatteryStatus 0x16
18.731158916666665,SMBus,Read address 0x0B ACK Protocol=Read word
18.731284750000000,SMBus,BatteryStatus 0xE0C0 OVER CHARGED ALARM=1, TERMINATE CHARGE ALARM=1, OVER TEMP ALARM=0, TERMINATE DISCHARGE ALARM=0, REMAINING CAPACITY ALARM=0, REMAINING TIME ALARM=0, INITIALIZED=1, DISCHARGING=1, FULLY CHARGED=0, FULLY DISCHARGED=0, ErrorCode=OK
18.731654666666667,SMBus,PEC 0xD3 OK
18.733229083333335,SMBus,Write address 0x0B ACK Protocol=Read word
18.733379166666666,SMBus,Command ChargingCurrent 0x14
18.733586833333334,SMBus,Read address 0x0B ACK Protocol=Read word
18.733787333333332,SMBus,Word 0x0000 ACK
18.734069833333333,SMBus,PEC 0xF2 OK
18.735644250000000,SMBus,Write address 0x0B ACK Protocol=Read word
18.735794416666668,SMBus,Command ChargingVoltage 0x15
18.736002083333332,SMBus,Read address 0x0B ACK Protocol=Read word
18.736203583333332,SMBus,Word 0x3831 ACK
18.736535833333335,SMBus,PEC 0x22 OK
18.738327833333333,SMBus,Write address 0x0B ACK Protocol=Read word
18.738478000000001,SMBus,Command Temperature 0x08
18.738685666666665,SMBus,Read address 0x0B ACK Protocol=Read word
18.738811583333334,SMBus,Word 0x920B ACK
18.739155916666668,SMBus,PEC 0x87 OK
18.740743083333335,SMBus,Write address 0x0B ACK Protocol=Read word
18.740893249999999,SMBus,Command <error> 0x3B
18.741139250000000,SMBus,Read address 0x0B ACK Protocol=Read word
18.741265333333335,SMBus,Word 0x920B ACK
18.741699083333334,SMBus,PEC 0x14 OK
18.743209416666666,SMBus,Write address 0x0B ACK Protocol=Read word
18.743359583333334,SMBus,Command Voltage 0x09
18.743567166666665,SMBus,Read address 0x0B ACK Protocol=Read word
18.743751916666668,SMBus,Word 0x7230 ACK
18.744088083333335,SMBus,PEC 0x73 OK
18.745599083333332,SMBus,Write address 0x0B ACK Protocol=Read word
18.745749166666666,SMBus,Command RemainingCapacity 0x0F
18.745956833333334,SMBus,Read address 0x0B ACK Protocol=Read word
18.746083166666665,SMBus,Word 0x9215 ACK
18.746439833333334,SMBus,PEC 0xBF OK
18.748282666666668,SMBus,Write address 0x0B ACK Protocol=Read word
18.748432749999999,SMBus,Command FullChargeCapacity 0x10
18.748640416666667,SMBus,Read address 0x0B ACK Protocol=Read word
18.748767083333334,SMBus,Word 0xA815 ACK
18.749174166666666,SMBus,PEC 0x71 OK
18.750697833333334,SMBus,Write address 0x0B ACK Protocol=Read word
18.750848000000001,SMBus,Command Current 0x0A
18.751055666666666,SMBus,Read address 0x0B ACK Protocol=Read word
18.751181500000001,SMBus,Word 0xFA7E ACK
18.751515749999999,SMBus,Bad PEC 0x75 should be 0xBA
18.753113083333332,SMBus,Write address 0x0B ACK Protocol=Read word
18.753263250000000,SMBus,Command RunTimeToEmpty 0x11
18.753470833333335,SMBus,Read address 0x0B ACK Protocol=Read word
18.753597083333332,SMBus,Word 0x8901 ACK
18.753953916666667,SMBus,PEC 0xB0 OK
18.755502750000002,SMBus,Write address 0x0B ACK Protocol=Read word
18.755652833333333,SMBus,Command AverageCurrent 0x0B
18.755860500000001,SMBus,Read address 0x0B ACK Protocol=Read word
18.755987250000000,SMBus,Word 0xF5FC ACK
18.756356333333333,SMBus,PEC 0xE8 OK
18.758224583333334,SMBus,Write address 0x0B ACK Protocol=Read word
18.758374750000002,SMBus,Command AverageTimeToFull 0x13
18.758607999999999,SMBus,Read address 0x0B ACK Protocol=Read word
18.758734083333334,SMBus,Word 0xFFFF ACK
18.759091000000002,SMBus,Bad PEC 0xBA should be 0xB4
18.760678166666668,SMBus,Write address 0x0B ACK Protocol=Read word
18.760828333333333,SMBus,Command AverageTimeToEmpty 0x12
18.761036000000001,SMBus,Read address 0x0B ACK Protocol=Read word
18.761162166666665,SMBus,Word 0x8901 ACK
18.761519000000000,SMBus,PEC 0x8A OK
18.763412916666667,SMBus,Write address 0x0B ACK Protocol=Read word
18.763563000000001,SMBus,Command CycleCount 0x17
18.763770666666666,SMBus,Read address 0x0B ACK Protocol=Read word
18.763896666666668,SMBus,Word 0xF100 ACK
18.764253666666665,SMBus,PEC 0xC9 OK
18.765828083333332,SMBus,Write address 0x0B ACK Protocol=Read word
18.765978250000000,SMBus,Command MaxError 0x0C
18.766185916666668,SMBus,Read address 0x0B ACK Protocol=Read word
18.766373750000000,SMBus,Word 0x0800 ACK
18.766668916666667,SMBus,PEC 0x8D OK
18.768486083333332,SMBus,Write address 0x0B ACK Protocol=Read word
18.768636250000000,SMBus,Command RelativeStateOfCharge 0x0D
18.768843916666668,SMBus,Read address 0x0B ACK Protocol=Read word
18.769033833333335,SMBus,Word 0x6400 ACK
18.769326916666667,SMBus,PEC 0x92 OK
18.770888583333335,SMBus,Write address 0x0B ACK Protocol=Block write
18.771038666666666,SMBus,Command ManufacturerData 0x23
18.771246333333334,SMBus,Read address 0x0B ACK Protocol=Block write
18.771456916666665,SMBus,Byte count 0x0C
18.771633000000001,SMBus,Byte 0x42 ACK
18.771812000000001,SMBus,Byte 0x0A ACK
18.771989999999999,SMBus,Byte 0x05 ACK
18.772169000000002,SMBus,Byte 0x12 ACK
18.772291666666668,SMBus,Byte 0x86 ACK
18.772527000000000,SMBus,Byte 0x0F ACK
18.772649416666667,SMBus,Byte 0x86 ACK
18.772885083333332,SMBus,Byte 0x0F ACK
18.773007249999999,SMBus,Byte 0x86 ACK
18.773243083333334,SMBus,Byte 0x0F ACK
18.773365083333335,SMBus,Byte 0x86 ACK
18.773601083333332,SMBus,Byte 0x0F ACK
18.773776333333334,SMBus,PEC 0x1B OK
18.775335583333334,SMBus,Write address 0x0B ACK Protocol=Block write
18.775485750000001,SMBus,Command <error> 0x30
18.775693416666666,SMBus,Read address 0x0B ACK Protocol=Block write
18.775904416666666,SMBus,Byte count 0x0A
18.776079666666668,SMBus,Byte 0x09 ACK
18.776202000000001,SMBus,Byte 0xEB ACK
18.776437666666666,SMBus,Byte 0x1A ACK
18.776559833333334,SMBus,Byte 0xC1 ACK
18.776795666666668,SMBus,Byte 0x09 ACK
18.776974666666668,SMBus,Byte 0x15 ACK
18.777153583333334,SMBus,Byte 0x00 ACK
18.777331666666665,SMBus,Byte 0x00 ACK
18.777510583333335,SMBus,Byte 0x00 ACK
18.777689583333334,SMBus,Byte 0x00 ACK
18.777865750000000,SMBus,PEC 0x5A OK
20.781811583333333,SMBus,Write address 0x0B ACK Protocol=Read word
20.781961750000001,SMBus,Command ManufacturerAccess 0x00
20.782169416666665,SMBus,Read address 0x0B ACK Protocol=Read word
20.782340083333334,SMBus,Word 0x1800 ACK
20.782690416666668,SMBus,PEC 0x32 OK
20.784290750000000,SMBus,Write address 0x0B ACK Protocol=Read word
20.784440916666668,SMBus,Command BatteryStatus 0x16
20.784648583333333,SMBus,Read address 0x0B ACK Protocol=Read word
20.784774916666667,SMBus,BatteryStatus 0xE0C0 OVER CHARGED ALARM=1, TERMINATE CHARGE ALARM=1, OVER TEMP ALARM=0, TERMINATE DISCHARGE ALARM=0, REMAINING CAPACITY ALARM=0, REMAINING TIME ALARM=0, INITIALIZED=1, DISCHARGING=1, FULLY CHARGED=0, FULLY DISCHARGED=0, ErrorCode=OK
20.785144333333335,SMBus,PEC 0xD3 OK
20.786718749999999,SMBus,Write address 0x0B ACK Protocol=Read word
20.786868916666666,SMBus,Command ChargingCurrent 0x14
20.787076500000001,SMBus,Read address 0x0B ACK Protocol=Read word
20.787277499999998,SMBus,Word 0x0000 ACK
20.787559583333334,SMBus,PEC 0xF2 OK
20.789223416666665,SMBus,Write address 0x0B ACK Protocol=Read word
20.789373583333333,SMBus,Command ChargingVoltage 0x15
20.789581166666668,SMBus,Read address 0x0B ACK Protocol=Read word
20.789783249999999,SMBus,Word 0x3831 ACK
20.790115499999999,SMBus,PEC 0x22 OK
20.791625833333335,SMBus,Write address 0x0B ACK Protocol=Read word
20.791775999999999,SMBus,Command Temperature 0x08
20.791983666666667,SMBus,Read address 0x0B ACK Protocol=Read word
20.792109499999999,SMBus,Word 0x920B ACK
20.792453833333333,SMBus,PEC 0x87 OK
20.794143250000001,SMBus,Write address 0x0B ACK Protocol=Read word
20.794293416666665,SMBus,Command <error> 0x3B
20.794501083333333,SMBus,Read address 0x0B ACK Protocol=Read word
20.794627666666667,SMBus,Word 0x920B ACK
20.795072916666665,SMBus,PEC 0x14 OK
20.796584083333332,SMBus,Write address 0x0B ACK Protocol=Read word
20.796734166666667,SMBus,Command Voltage 0x09
20.796941833333332,SMBus,Read address 0x0B ACK Protocol=Read word
20.797126583333334,SMBus,Word 0x7330 ACK
20.797462750000001,SMBus,PEC 0x66 OK
20.799101499999999,SMBus,Write address 0x0B ACK Protocol=Read word
20.799251666666667,SMBus,Command RemainingCapacity 0x0F
20.799478499999999,SMBus,Read address 0x0B ACK Protocol=Read word
20.799624333333334,SMBus,Word 0x9215 ACK
20.799967833333334,SMBus,PEC 0xBF OK
20.801491166666668,SMBus,Write address 0x0B ACK Protocol=Read word
20.801641333333333,SMBus,Command FullChargeCapacity 0x10
20.801849000000001,SMBus,Read address 0x0B ACK Protocol=Read word
20.801974916666666,SMBus,Word 0xA815 ACK
20.802382916666666,SMBus,PEC 0x71 OK
20.803944749999999,SMBus,Write address 0x0B ACK Protocol=Read word
20.804094833333334,SMBus,Command Current 0x0A
20.804302499999999,SMBus,Read address 0x0B ACK Protocol=Read word
20.804428416666667,SMBus,Word 0xB8FC ACK
20.804848833333335,SMBus,PEC 0x4C OK
20.806334416666665,SMBus,Write address 0x0B ACK Protocol=Read word
20.806484500000000,SMBus,Command RunTimeToEmpty 0x11
20.806692166666668,SMBus,Read address 0x0B ACK Protocol=Read word
20.806887916666668,SMBus,Word 0x6D01 ACK
20.807175166666667,SMBus,PEC 0xA7 OK
20.808851833333332,SMBus,Write address 0x0B ACK Protocol=Read word
20.809002000000000,SMBus,Command AverageCurrent 0x0B
20.809209666666668,SMBus,Read address 0x0B ACK Protocol=Read word
20.809336083333335,SMBus,Word 0xC6FC ACK
20.809730916666666,SMBus,PEC 0x2E OK
20.811254250000001,SMBus,Write address 0x0B ACK Protocol=Read word
20.811404416666665,SMBus,Command AverageTimeToFull 0x13
20.811612083333333,SMBus,Read address 0x0B ACK Protocol=Read word
20.811738166666668,SMBus,Word 0xFFFF ACK
20.812107833333332,SMBus,PEC 0xB4 OK
20.813771666666668,SMBus,Write address 0x0B ACK Protocol=Read word
20.813921833333332,SMBus,Command AverageTimeToEmpty 0x12
20.814129500000000,SMBus,Read address 0x0B ACK Protocol=Read word
20.814327083333332,SMBus,Word 0x6D01 ACK
20.814612499999999,SMBus,PEC 0x9D OK
20.816250833333335,SMBus,Write address 0x0B ACK Protocol=Read word
20.816400999999999,SMBus,Command CycleCount 0x17
20.816608666666667,SMBus,Read address 0x0B ACK Protocol=Read word
20.816735083333334,SMBus,Word 0xF100 ACK
20.817104416666666,SMBus,PEC 0xC9 OK
20.818781083333334,SMBus,Write address 0x0B ACK Protocol=Read word
20.818931166666665,SMBus,Command MaxError 0x0C
20.819138833333334,SMBus,Read address 0x0B ACK Protocol=Read word
20.819326666666665,SMBus,Word 0x0800 ACK
20.819621833333333,SMBus,PEC 0x8D OK
20.821183500000000,SMBus,Write address 0x0B ACK Protocol=Read word
20.821333666666668,SMBus,Command RelativeStateOfCharge 0x0D
20.821541333333332,SMBus,Read address 0x0B ACK Protocol=Read word
20.821732083333334,SMBus,Word 0x6400 ACK
20.822011499999999,SMBus,PEC 0x92 OK
20.823675333333334,SMBus,Write address 0x0B ACK Protocol=Block write
20.823825500000002,SMBus,Command ManufacturerData 0x23
20.824033166666666,SMBus,Read address 0x0B ACK Protocol=Block write
20.824243166666665,SMBus,Byte count 0x0C
20.824419249999998,SMBus,Byte 0x42 ACK
20.824598250000001,SMBus,Byte 0x0A ACK
20.824777250000000,SMBus,Byte 0x05 ACK
20.824956250000000,SMBus,Byte 0x12 ACK
20.825078416666667,SMBus,Byte 0x86 ACK
20.825314166666665,SMBus,Byte 0x0F ACK
20.825436249999999,SMBus,Byte 0x86 ACK
20.825672166666667,SMBus,Byte 0x0F ACK
20.825794083333335,SMBus,Byte 0x86 ACK
20.826030083333332,SMBus,Byte 0x0F ACK
20.826151916666667,SMBus,Byte 0x86 ACK
20.826387083333334,SMBus,Byte 0x0F ACK
20.826563250000000,SMBus,PEC 0x1B OK
20.828096916666667,SMBus,Write address 0x0B ACK Protocol=Block write
20.828247000000001,SMBus,Command <error> 0x30
20.828454666666666,SMBus,Read address 0x0B ACK Protocol=Block write
20.828666166666668,SMBus,Byte count 0x0A
20.828841333333333,SMBus,Byte 0x09 ACK
20.828963250000001,SMBus,Byte 0xEB ACK
20.829198333333334,SMBus,Byte 0x1A ACK
20.829321083333333,SMBus,Byte 0xC1 ACK
20.829556250000000,SMBus,Byte 0x09 ACK
20.829735166666666,SMBus,Byte 0x15 ACK
20.829914250000002,SMBus,Byte 0x00 ACK
20.830093166666668,SMBus,Byte 0x00 ACK
20.830272166666667,SMBus,Byte 0x00 ACK
20.830451083333333,SMBus,Byte 0x00 ACK
20.830627249999999,SMBus,PEC 0x5A OK
22.834249083333333,SMBus,Write address 0x0B ACK Protocol=Read word
22.834399250000001,SMBus,Command ManufacturerAccess 0x00
22.834606916666665,SMBus,Read address 0x0B ACK Protocol=Read word
22.834777666666668,SMBus,Word 0x1800 ACK
22.835128000000001,SMBus,PEC 0x32 OK
22.836753750000000,SMBus,Write address 0x0B ACK Protocol=Read word
22.836903916666667,SMBus,Command BatteryStatus 0x16
22.837111583333332,SMBus,Read address 0x0B ACK Protocol=Read word
22.837237500000001,SMBus,BatteryStatus 0xE0C0 OVER CHARGED ALARM=1, TERMINATE CHARGE ALARM=1, OVER TEMP ALARM=0, TERMINATE DISCHARGE ALARM=0, REMAINING CAPACITY ALARM=0, REMAINING TIME ALARM=0, INITIALIZED=1, DISCHARGING=1, FULLY CHARGED=0, FULLY DISCHARGED=0, ErrorCode=OK
22.837594583333335,SMBus,PEC 0xD3 OK
22.839156249999998,SMBus,Write address 0x0B ACK Protocol=Read word
22.839306333333333,SMBus,Command ChargingCurrent 0x14
22.839514000000001,SMBus,Read address 0x0B ACK Protocol=Read word
22.839714666666666,SMBus,Word 0x0000 ACK
22.840009833333333,SMBus,PEC 0xF2 OK
22.841648083333332,SMBus,Write address 0x0B ACK Protocol=Read word
22.841798250000000,SMBus,Command ChargingVoltage 0x15
22.842005916666668,SMBus,Read address 0x0B ACK Protocol=Read word
22.842207416666668,SMBus,Word 0x3831 ACK
22.842539750000000,SMBus,PEC 0x22 OK
22.844063333333334,SMBus,Write address 0x0B ACK Protocol=Read word
22.844213499999999,SMBus,Command Temperature 0x08
22.844421166666667,SMBus,Read address 0x0B ACK Protocol=Read word
22.844547083333332,SMBus,Word 0x920B ACK
22.844891333333333,SMBus,PEC 0x87 OK
22.846606333333334,SMBus,Write address 0x0B ACK Protocol=Read word
22.846756500000001,SMBus,Command <error> 0x3B
22.847002499999999,SMBus,Read address 0x0B ACK Protocol=Read word
22.847129166666665,SMBus,Word 0x920B ACK
22.847574416666667,SMBus,PEC 0x14 OK
22.849098250000001,SMBus,Write address 0x0B ACK Protocol=Read word
22.849248333333332,SMBus,Command Voltage 0x09
22.849481583333333,SMBus,Read address 0x0B ACK Protocol=Read word
22.849666249999999,SMBus,Word 0x7030 ACK
22.850002333333332,SMBus,PEC 0x59 OK
22.851602916666668,SMBus,Write address 0x0B ACK Protocol=Read word
22.851752999999999,SMBus,Command RemainingCapacity 0x0F
22.851998999999999,SMBus,Read address 0x0B ACK Protocol=Read word
22.852125749999999,SMBus,Word 0x9215 ACK
22.852469166666666,SMBus,PEC 0xBF OK
22.854030916666666,SMBus,Write address 0x0B ACK Protocol=Read word
22.854181000000001,SMBus,Command FullChargeCapacity 0x10
22.854407833333333,SMBus,Read address 0x0B ACK Protocol=Read word
22.854553666666668,SMBus,Word 0xA815 ACK
22.854960750000000,SMBus,PEC 0x71 OK
22.856599416666668,SMBus,Write address 0x0B ACK Protocol=Read word
22.856749583333333,SMBus,Command Current 0x0A
22.856995583333333,SMBus,Read address 0x0B ACK Protocol=Read word
22.857121666666668,SMBus,Word 0xE9FC ACK
22.857516333333333,SMBus,PEC 0x55 OK
22.859027416666667,SMBus,Write address 0x0B ACK Protocol=Read word
22.859177583333334,SMBus,Command RunTimeToEmpty 0x11
22.859404416666667,SMBus,Read address 0x0B ACK Protocol=Read word
22.859550333333335,SMBus,Word 0x8301 ACK
22.859970749999999,SMBus,PEC 0x32 OK
22.861570416666666,SMBus,Write address 0x0B ACK Protocol=Read word
22.861720583333334,SMBus,Command AverageCurrent 0x0B
22.861928249999998,SMBus,Read address 0x0B ACK Protocol=Read word
22.862054666666666,SMBus,Word 0xE9FC ACK
22.862461750000001,SMBus,PEC 0x43 OK
22.863960083333332,SMBus,Write address 0x0B ACK Protocol=Read word
22.864110250000000,SMBus,Command AverageTimeToFull 0x13
22.864317916666668,SMBus,Read address 0x0B ACK Protocol=Read word
22.864444166666665,SMBus,Word 0xFFFF ACK
22.864800916666667,SMBus,PEC 0xB4 OK
22.866477583333332,SMBus,Write address 0x0B ACK Protocol=Read word
22.866627666666666,SMBus,Command AverageTimeToEmpty 0x12
22.866835333333334,SMBus,Read address 0x0B ACK Protocol=Read word
22.866962083333334,SMBus,Word 0x8301 ACK
22.867381666666667,SMBus,PEC 0x08 OK
22.868867250000001,SMBus,Write address 0x0B ACK Protocol=Read word
22.869017333333332,SMBus,Command CycleCount 0x17
22.869225000000000,SMBus,Read address 0x0B ACK Protocol=Read word
22.869351500000000,SMBus,Word 0xF100 ACK
22.869707999999999,SMBus,PEC 0xC9 OK
22.871359083333335,SMBus,Write address 0x0B ACK Protocol=Read word
22.871509249999999,SMBus,Command MaxError 0x0C
22.871716916666667,SMBus,Read address 0x0B ACK Protocol=Read word
22.871904250000000,SMBus,Word 0x0800 ACK
22.872199916666666,SMBus,PEC 0x8D OK
22.873761500000001,SMBus,Write address 0x0B ACK Protocol=Read word
22.873911666666668,SMBus,Command RelativeStateOfCharge 0x0D
22.874119333333333,SMBus,Read address 0x0B ACK Protocol=Read word
22.874309749999998,SMBus,Word 0x6400 ACK
22.874589583333332,SMBus,PEC 0x92 OK
22.876253416666668,SMBus,Write address 0x0B ACK Protocol=Block write
22.876403583333332,SMBus,Command ManufacturerData 0x23
22.876611250000000,SMBus,Read address 0x0B ACK Protocol=Block write
22.876822000000001,SMBus,Byte count 0x0C
22.876997166666666,SMBus,Byte 0x42 ACK
22.877176250000002,SMBus,Byte 0x0A ACK
22.877355250000001,SMBus,Byte 0x05 ACK
22.877534250000000,SMBus,Byte 0x12 ACK
22.877656500000001,SMBus,Byte 0x86 ACK
22.877892333333332,SMBus,Byte 0x0F ACK
22.878027083333333,SMBus,Byte 0x86 ACK
22.878262833333334,SMBus,Byte 0x0F ACK
22.878384916666668,SMBus,Byte 0x86 ACK
22.878620083333335,SMBus,Byte 0x0F ACK
22.878742750000001,SMBus,Byte 0x86 ACK
22.878978083333333,SMBus,Byte 0x0F ACK
22.879154249999999,SMBus,PEC 0x1B OK
22.880687750000000,SMBus,Write address 0x0B ACK Protocol=Block write
22.880837833333334,SMBus,Command <error> 0x30
22.881045499999999,SMBus,Read address 0x0B ACK Protocol=Block write
22.881256583333332,SMBus,Byte count 0x0A
22.881431833333334,SMBus,Byte 0x09 ACK
22.881554083333334,SMBus,Byte 0xEB ACK
22.881789833333332,SMBus,Byte 0x1A ACK
22.881911916666667,SMBus,Byte 0xC1 ACK
22.882147833333335,SMBus,Byte 0x09 ACK
22.882325916666666,SMBus,Byte 0x15 ACK
22.882504916666665,SMBus,Byte 0x00 ACK
22.882683916666668,SMBus,Byte 0x00 ACK
22.882862916666667,SMBus,Byte 0x00 ACK
22.883041916666667,SMBus,Byte 0x00 ACK
22.883218083333333,SMBus,PEC 0x5A OK
24.886690416666667,SMBus,Write address 0x0B ACK Protocol=Read word
24.886840500000002,SMBus,Command ManufacturerAccess 0x00
24.887048166666666,SMBus,Read address 0x0B ACK Protocol=Read word
24.887218833333332,SMBus,Word 0x1800 ACK
24.887569249999999,SMBus,PEC 0x32 OK
24.889169500000001,SMBus,Write address 0x0B ACK Protocol=Read word
24.889319666666665,SMBus,Command BatteryStatus 0x16
24.889527333333334,SMBus,Read address 0x0B ACK Protocol=Read word
24.889653750000001,SMBus,BatteryStatus 0xE0C0 OVER CHARGED ALARM=1, TERMINATE CHARGE ALARM=1, OVER TEMP ALARM=0, TERMINATE DISCHARGE ALARM=0, REMAINING CAPACITY ALARM=0, REMAINING TIME ALARM=0, INITIALIZED=1, DISCHARGING=1, FULLY CHARGED=0, FULLY DISCHARGED=0, ErrorCode=OK
24.890023083333332,SMBus,PEC 0xD3 OK
24.891584750000000,SMBus,Write address 0x0B ACK Protocol=Read word
24.891734833333334,SMBus,Command ChargingCurrent 0x14
24.891942499999999,SMBus,Read address 0x0B ACK Protocol=Read word
24.892143166666667,SMBus,Word 0x0000 ACK
24.892438333333335,SMBus,PEC 0xF2 OK
24.894102166666666,SMBus,Write address 0x0B ACK Protocol=Read word
24.894252333333334,SMBus,Command ChargingVoltage 0x15
24.894459999999999,SMBus,Read address 0x0B ACK Protocol=Read word
24.894661750000001,SMBus,Word 0x3831 ACK
24.894994166666667,SMBus,PEC 0x22 OK
24.896504583333332,SMBus,Write address 0x0B ACK Protocol=Read word
24.896654750000000,SMBus,Command Temperature 0x08
24.896862416666668,SMBus,Read address 0x0B ACK Protocol=Read word
24.896988416666666,SMBus,Word 0x920B ACK
24.897332666666667,SMBus,PEC 0x87 OK
24.899009249999999,SMBus,Write address 0x0B ACK Protocol=Read word
24.899159416666667,SMBus,Command <error> 0x3B
24.899367083333335,SMBus,Read address 0x0B ACK Protocol=Read word
24.899493583333335,SMBus,Word 0x920B ACK
24.899939833333335,SMBus,PEC 0x14 OK
24.901462833333333,SMBus,Write address 0x0B ACK Protocol=Read word
24.901613000000001,SMBus,Command Voltage 0x09
24.901820666666666,SMBus,Read address 0x0B ACK Protocol=Read word
24.902005083333332,SMBus,Word 0x7230 ACK
24.902342250000000,SMBus,PEC 0x73 OK
24.903967500000000,SMBus,Write address 0x0B ACK Protocol=Read word
24.904117666666668,SMBus,Command RemainingCapacity 0x0F
24.904325333333333,SMBus,Read address 0x0B ACK Protocol=Read word
24.904451583333334,SMBus,Word 0x9015 ACK
24.904808333333332,SMBus,PEC 0x95 OK
24.906350750000001,SMBus,Write address 0x0B ACK Protocol=Read word
24.906520083333334,SMBus,Command FullChargeCapacity 0x10
24.906727750000002,SMBus,Read address 0x0B ACK Protocol=Read word
24.906853916666666,SMBus,Word 0xA815 ACK
24.907261916666666,SMBus,PEC 0x71 OK
24.908842666666665,SMBus,Write address 0x0B ACK Protocol=Read word
24.909012000000001,SMBus,Command Current 0x0A
24.909219583333332,SMBus,Read address 0x0B ACK Protocol=Read word
24.909345666666667,SMBus,Word 0xEEFC ACK
24.909740500000002,SMBus,PEC 0x3E OK
24.911213166666666,SMBus,Write address 0x0B ACK Protocol=Read word
24.911363250000001,SMBus,Command RunTimeToEmpty 0x11
24.911570916666665,SMBus,Read address 0x0B ACK Protocol=Read word
24.911697416666666,SMBus,Word 0x8601 ACK
24.912104416666665,SMBus,PEC 0x73 OK
24.913717833333333,SMBus,Write address 0x0B ACK Protocol=Read word
24.913867916666668,SMBus,Command AverageCurrent 0x0B
24.914075583333332,SMBus,Read address 0x0B ACK Protocol=Read word
24.914201500000001,SMBus,Word 0xECFC ACK
24.914597250000000,SMBus,PEC 0x02 OK
24.916094666666666,SMBus,Write address 0x0B ACK Protocol=Read word
24.916244833333334,SMBus,Command AverageTimeToFull 0x13
24.916452499999998,SMBus,Read address 0x0B ACK Protocol=Read word
24.916579166666665,SMBus,Word 0xFFFF ACK
24.916935500000001,SMBus,PEC 0xB4 OK
24.918573833333333,SMBus,Write address 0x0B ACK Protocol=Read word
24.918723916666668,SMBus,Command AverageTimeToEmpty 0x12
24.918931583333332,SMBus,Read address 0x0B ACK Protocol=Read word
24.919058333333332,SMBus,Word 0x8601 ACK
24.919478750000000,SMBus,PEC 0x49 OK
24.921091250000000,SMBus,Write address 0x0B ACK Protocol=Read word
24.921241416666668,SMBus,Command CycleCount 0x17
24.921449083333332,SMBus,Read address 0x0B ACK Protocol=Read word
24.921575583333333,SMBus,Word 0xF100 ACK
24.921932083333335,SMBus,PEC 0xC9 OK
24.923595916666667,SMBus,Write address 0x0B ACK Protocol=Read word
24.923746083333334,SMBus,Command MaxError 0x0C
24.923953749999999,SMBus,Read address 0x0B ACK Protocol=Read word
24.924140999999999,SMBus,Word 0x0800 ACK
24.924423916666665,SMBus,PEC 0x8D OK
24.925998333333332,SMBus,Write address 0x0B ACK Protocol=Read word
24.926148500000000,SMBus,Command RelativeStateOfCharge 0x0D
24.926356166666668,SMBus,Read address 0x0B ACK Protocol=Read word
24.926546833333333,SMBus,Word 0x6400 ACK
24.926839166666667,SMBus,PEC 0x92 OK
24.928400750000002,SMBus,Write address 0x0B ACK Protocol=Block write
24.928550916666666,SMBus,Command ManufacturerData 0x23
24.928758583333334,SMBus,Read address 0x0B ACK Protocol=Block write
24.928968749999999,SMBus,Byte count 0x0C
24.929144916666665,SMBus,Byte 0x42 ACK
24.929323833333335,SMBus,Byte 0x0A ACK
24.929502833333334,SMBus,Byte 0x05 ACK
24.929681833333333,SMBus,Byte 0x12 ACK
24.929803833333334,SMBus,Byte 0x86 ACK
24.930039833333332,SMBus,Byte 0x0F ACK
24.930161666666667,SMBus,Byte 0x86 ACK
24.930396833333333,SMBus,Byte 0x0F ACK
24.930519499999999,SMBus,Byte 0x86 ACK
24.930754749999998,SMBus,Byte 0x0F ACK
24.930877250000002,SMBus,Byte 0x86 ACK
24.931112750000000,SMBus,Byte 0x0F ACK
24.931288833333333,SMBus,PEC 0x1B OK
24.932828666666666,SMBus,Write address 0x0B ACK Protocol=Block write
24.932998000000001,SMBus,Command <error> 0x30
24.933205666666666,SMBus,Read address 0x0B ACK Protocol=Block write
24.933417416666668,SMBus,Byte count 0x0A
24.933591583333332,SMBus,Byte 0x09 ACK
24.933714250000001,SMBus,Byte 0xEB ACK
24.933949500000001,SMBus,Byte 0x1A ACK
24.934072000000000,SMBus,Byte 0xC1 ACK
24.934307416666666,SMBus,Byte 0x09 ACK
24.934486416666665,SMBus,Byte 0x15 ACK
24.934665416666668,SMBus,Byte 0x00 ACK
24.934844500000001,SMBus,Byte 0x00 ACK
24.935023500000000,SMBus,Byte 0x00 ACK
24.935202499999999,SMBus,Byte 0x00 ACK
24.935377666666668,SMBus,PEC 0x5A OK
26.939119000000002,SMBus,Write address 0x0B ACK Protocol=Read word
26.939269083333333,SMBus,Command ManufacturerAccess 0x00
26.939476750000001,SMBus,Read address 0x0B ACK Protocol=Read word
26.939646833333335,SMBus,Word 0x1800 ACK
26.940010583333333,SMBus,PEC 0x32 OK
26.941636416666668,SMBus,Write address 0x0B ACK Protocol=Read word
26.941786583333332,SMBus,Command BatteryStatus 0x16
26.941994250000000,SMBus,Read address 0x0B ACK Protocol=Read word
26.942120750000001,SMBus,BatteryStatus 0xE0C0 OVER CHARGED ALARM=1, TERMINATE CHARGE ALARM=1, OVER TEMP ALARM=0, TERMINATE DISCHARGE ALARM=0, REMAINING CAPACITY ALARM=0, REMAINING TIME ALARM=0, INITIALIZED=1, DISCHARGING=1, FULLY CHARGED=0, FULLY DISCHARGED=0, ErrorCode=OK
26.942477250000000,SMBus,PEC 0xD3 OK
26.944038833333334,SMBus,Write address 0x0B ACK Protocol=Read word
26.944189000000001,SMBus,Command ChargingCurrent 0x14
26.944396666666666,SMBus,Read address 0x0B ACK Protocol=Read word
26.944597833333333,SMBus,Word 0x0000 ACK
26.944879666666665,SMBus,PEC 0xF2 OK
26.946518000000001,SMBus,Write address 0x0B ACK Protocol=Read word
26.946668083333332,SMBus,Command ChargingVoltage 0x15
26.946875750000000,SMBus,Read address 0x0B ACK Protocol=Read word
26.947077833333335,SMBus,Word 0x3831 ACK
26.947410166666668,SMBus,PEC 0x22 OK
26.948933166666666,SMBus,Write address 0x0B ACK Protocol=Read word
26.949083333333334,SMBus,Command Temperature 0x08
26.949310166666667,SMBus,Read address 0x0B ACK Protocol=Read word
26.949455583333332,SMBus,Word 0x920B ACK
26.949799583333334,SMBus,PEC 0x87 OK
26.951476166666666,SMBus,Write address 0x0B ACK Protocol=Read word
26.951626333333333,SMBus,Command <error> 0x3B
26.951872333333334,SMBus,Read address 0x0B ACK Protocol=Read word
26.951998416666665,SMBus,Word 0x920B ACK
26.952432166666668,SMBus,PEC 0x14 OK
26.953942500000000,SMBus,Write address 0x0B ACK Protocol=Read word
26.954092666666668,SMBus,Command Voltage 0x09
26.954300333333332,SMBus,Read address 0x0B ACK Protocol=Read word
26.954485416666667,SMBus,Word 0x7030 ACK
26.954821583333334,SMBus,PEC 0x59 OK
26.956447166666667,SMBus,Write address 0x0B ACK Protocol=Read word
26.956597333333335,SMBus,Command RemainingCapacity 0x0F
26.956804999999999,SMBus,Read address 0x0B ACK Protocol=Read word
26.956931583333333,SMBus,Word 0x9015 ACK
26.957275249999999,SMBus,PEC 0x95 OK
26.958798500000000,SMBus,Write address 0x0B ACK Protocol=Read word
26.958948666666668,SMBus,Command FullChargeCapacity 0x10
26.959156333333333,SMBus,Read address 0x0B ACK Protocol=Read word
26.959282083333335,SMBus,Word 0xA815 ACK
26.959703500000000,SMBus,PEC 0x71 OK
26.961290416666667,SMBus,Write address 0x0B ACK Protocol=Read word
26.961440499999998,SMBus,Command Current 0x0A
26.961648166666667,SMBus,Read address 0x0B ACK Protocol=Read word
26.961774416666668,SMBus,Word 0xF3FC ACK
26.962118416666666,SMBus,PEC 0x80 OK
26.963654500000001,SMBus,Write address 0x0B ACK Protocol=Read word
26.963804666666668,SMBus,Command RunTimeToEmpty 0x11
26.964012333333333,SMBus,Read address 0x0B ACK Protocol=Read word
26.964138500000001,SMBus,Word 0x8801 ACK
26.964495333333332,SMBus,PEC 0xA5 OK
26.966146416666668,SMBus,Write address 0x0B ACK Protocol=Read word
26.966296499999999,SMBus,Command AverageCurrent 0x0B
26.966504166666667,SMBus,Read address 0x0B ACK Protocol=Read word
26.966630166666668,SMBus,Word 0xF2FC ACK
26.966974416666666,SMBus,PEC 0x83 OK
26.968561583333333,SMBus,Write address 0x0B ACK Protocol=Read word
26.968711750000001,SMBus,Command AverageTimeToFull 0x13
26.968919416666665,SMBus,Read address 0x0B ACK Protocol=Read word
26.969045749999999,SMBus,Word 0xFF7F NACK
26.969401999999999,SMBus,Bad PEC 0x5A should be 0x3D
26.971104583333332,SMBus,Write address 0x0B ACK Protocol=Read word
26.971254750000000,SMBus,Command AverageTimeToEmpty 0x12
26.971462416666668,SMBus,Read address 0x0B ACK Protocol=Read word
26.971588666666666,SMBus,Word 0x8801 ACK
26.971945416666667,SMBus,PEC 0x9F OK
26.973507000000001,SMBus,Write address 0x0B ACK Protocol=Read word
26.973657166666666,SMBus,Command CycleCount 0x17
26.973864833333334,SMBus,Read address 0x0B ACK Protocol=Read word
26.973991583333333,SMBus,Word 0xF100 ACK
26.974347833333333,SMBus,PEC 0xC9 OK
26.975986166666665,SMBus,Write address 0x0B ACK Protocol=Read word
26.976136333333333,SMBus,Command MaxError 0x0C
26.976344000000001,SMBus,Read address 0x0B ACK Protocol=Read word
26.976531250000001,SMBus,Word 0x0800 ACK
26.976814166666667,SMBus,PEC 0x8D OK
26.978490833333332,SMBus,Write address 0x0B ACK Protocol=Read word
26.978641000000000,SMBus,Command RelativeStateOfCharge 0x0D
26.978848583333335,SMBus,Read address 0x0B ACK Protocol=Read word
26.979038750000001,SMBus,Word 0x6400 ACK
26.979318833333334,SMBus,PEC 0x92 OK
26.980982666666666,SMBus,Write address 0x0B ACK Protocol=Block write
26.981132833333334,SMBus,Command ManufacturerData 0x23
26.981340500000002,SMBus,Read address 0x0B ACK Protocol=Block write
26.981551166666666,SMBus,Byte count 0x0C
26.981726333333334,SMBus,Byte 0x42 ACK
26.981905333333334,SMBus,Byte 0x0A ACK
26.982084333333333,SMBus,Byte 0x05 ACK
26.982263333333332,SMBus,Byte 0x12 ACK
26.982385749999999,SMBus,Byte 0x86 ACK
26.982621250000001,SMBus,Byte 0x0F ACK
26.982743583333335,SMBus,Byte 0x86 ACK
26.982979250000000,SMBus,Byte 0x0F ACK
26.983101416666667,SMBus,Byte 0x86 ACK
26.983337250000002,SMBus,Byte 0x0F ACK
26.983459249999999,SMBus,Byte 0x86 ACK
26.983695250000000,SMBus,Byte 0x0F ACK
26.983870416666665,SMBus,PEC 0x1B OK
26.985417000000002,SMBus,Write address 0x0B ACK Protocol=Block write
26.985567166666666,SMBus,Command <error> 0x30
26.985774833333334,SMBus,Read address 0x0B ACK Protocol=Block write
26.985986499999999,SMBus,Byte count 0x0A
26.986160666666667,SMBus,Byte 0x09 ACK
26.986283333333333,SMBus,Byte 0xEB ACK
26.986518666666665,SMBus,Byte 0x1A ACK
26.986641166666665,SMBus,Byte 0xC1 ACK
26.986876666666667,SMBus,Byte 0x09 ACK
26.987055666666667,SMBus,Byte 0x15 ACK
26.987234666666666,SMBus,Byte 0x00 ACK
26.987413666666665,SMBus,Byte 0x00 ACK
26.987592666666668,SMBus,Byte 0x00 ACK
26.987771666666667,SMBus,Byte 0x00 ACK
26.987960166666667,SMBus,PEC 0x5A OK
28.991558083333334,SMBus,Write address 0x0B ACK Protocol=Read word
28.991708249999999,SMBus,Command ManufacturerAccess 0x00
28.991915916666667,SMBus,Read address 0x0B ACK Protocol=Read word
28.992086000000000,SMBus,Word 0x1800 ACK
28.992449749999999,SMBus,PEC 0x32 OK
28.994050000000001,SMBus,Write address 0x0B ACK Protocol=Read word
28.994200083333332,SMBus,Command BatteryStatus 0x16
28.994407750000001,SMBus,Read address 0x0B ACK Protocol=Read word
28.994533583333332,SMBus,BatteryStatus 0xE0C0 OVER CHARGED ALARM=1, TERMINATE CHARGE ALARM=1, OVER TEMP ALARM=0, TERMINATE DISCHARGE ALARM=0, REMAINING CAPACITY ALARM=0, REMAINING TIME ALARM=0, INITIALIZED=1, DISCHARGING=1, FULLY CHARGED=0, FULLY DISCHARGED=0, ErrorCode=OK
28.994903583333333,SMBus,PEC 0xD3 OK
28.996452416666667,SMBus,Write address 0x0B ACK Protocol=Read word
28.996602583333335,SMBus,Command ChargingCurrent 0x14
28.996835749999999,SMBus,Read address 0x0B ACK Protocol=Read word
28.997036500000000,SMBus,Word 0x0000 ACK
28.997331583333334,SMBus,PEC 0xF2 OK
28.999008166666666,SMBus,Write address 0x0B ACK Protocol=Read word
28.999158333333334,SMBus,Command ChargingVoltage 0x15
28.999365999999998,SMBus,Read address 0x0B ACK Protocol=Read word
28.999567583333334,SMBus,Word 0x3831 ACK
28.999913249999999,SMBus,PEC 0x22 OK
29.001423416666668,SMBus,Write address 0x0B ACK Protocol=Read word
29.001573583333332,SMBus,Command Temperature 0x08
29.001806750000000,SMBus,Read address 0x0B ACK Protocol=Read word
29.001933250000000,SMBus,Word 0x920B ACK
29.002276999999999,SMBus,PEC 0x87 OK
29.003928083333335,SMBus,Write address 0x0B ACK Protocol=Read word
29.004078249999999,SMBus,Command <error> 0x3B
29.004324250000000,SMBus,Read address 0x0B ACK Protocol=Read word
29.004450750000000,SMBus,Word 0x920B ACK
29.004896916666667,SMBus,PEC 0x14 OK
29.006419999999999,SMBus,Write address 0x0B ACK Protocol=Read word
29.006570083333333,SMBus,Command Voltage 0x09
29.006803333333334,SMBus,Read address 0x0B ACK Protocol=Read word
29.006987916666667,SMBus,Word 0x6E30 ACK
29.007273583333333,SMBus,PEC 0xD8 OK
29.008950166666665,SMBus,Write address 0x0B ACK Protocol=Read word
29.009100333333333,SMBus,Command RemainingCapacity 0x0F
29.009308000000001,SMBus,Read address 0x0B ACK Protocol=Read word
29.009434416666668,SMBus,Word 0x8F15 ACK
29.009841583333333,SMBus,PEC 0x01 OK
29.011365416666667,SMBus,Write address 0x0B ACK Protocol=Read word
29.011515583333335,SMBus,Command FullChargeCapacity 0x10
29.011723249999999,SMBus,Read address 0x0B ACK Protocol=Read word
29.011849166666668,SMBus,Word 0xA815 ACK
29.012257250000001,SMBus,PEC 0x71 OK
29.013870083333334,SMBus,Write address 0x0B ACK Protocol=Read word
29.014020250000002,SMBus,Command Current 0x0A
29.014227916666666,SMBus,Read address 0x0B ACK Protocol=Read word
29.014354416666666,SMBus,Word 0xFCFC ACK
29.014749333333334,SMBus,PEC 0x43 OK
29.016272499999999,SMBus,Write address 0x0B ACK Protocol=Read word
29.016422666666667,SMBus,Command RunTimeToEmpty 0x11
29.016630333333332,SMBus,Read address 0x0B ACK Protocol=Read word
29.016756999999998,SMBus,Word 0x8D01 ACK
29.017113333333334,SMBus,PEC 0xE4 OK
29.018777166666666,SMBus,Write address 0x0B ACK Protocol=Read word
29.018927333333334,SMBus,Command AverageCurrent 0x0B
29.019134999999999,SMBus,Read address 0x0B ACK Protocol=Read word
29.019261333333333,SMBus,Word 0xF3FC ACK
29.019618000000001,SMBus,PEC 0x96 OK
29.021154083333332,SMBus,Write address 0x0B ACK Protocol=Read word
29.021304166666667,SMBus,Command AverageTimeToFull 0x13
29.021511833333335,SMBus,Read address 0x0B ACK Protocol=Read word
29.021637999999999,SMBus,Word 0xFFFF ACK
29.021994833333334,SMBus,PEC 0xB4 OK
29.023658749999999,SMBus,Write address 0x0B ACK Protocol=Read word
29.023808833333334,SMBus,Command AverageTimeToEmpty 0x12
29.024016499999998,SMBus,Read address 0x0B ACK Protocol=Read word
29.024143166666665,SMBus,Word 0x8D01 ACK
29.024499500000001,SMBus,PEC 0xDE OK
29.026061166666668,SMBus,Write address 0x0B ACK Protocol=Read word
29.026211333333332,SMBus,Command CycleCount 0x17
29.026419000000001,SMBus,Read address 0x0B ACK Protocol=Read word
29.026545583333334,SMBus,Word 0xF100 ACK
29.026902000000000,SMBus,PEC 0xC9 OK
29.028591416666668,SMBus,Write address 0x0B ACK Protocol=Read word
29.028741499999999,SMBus,Command MaxError 0x0C
29.028949166666667,SMBus,Read address 0x0B ACK Protocol=Read word
29.029136916666666,SMBus,Word 0x0800 ACK
29.029419416666666,SMBus,PEC 0x8D OK
29.030981000000001,SMBus,Write address 0x0B ACK Protocol=Read word
29.031131166666668,SMBus,Command RelativeStateOfCharge 0x0D
29.031338833333333,SMBus,Read address 0x0B ACK Protocol=Read word
29.031529583333334,SMBus,Word 0x6400 ACK
29.031821833333332,SMBus,PEC 0x92 OK
29.033485666666667,SMBus,Write address 0x0B ACK Protocol=Block write
29.033635833333335,SMBus,Command ManufacturerData 0x23
29.033843500000000,SMBus,Read address 0x0B ACK Protocol=Block write
29.034053750000002,SMBus,Byte count 0x0C
29.034229833333335,SMBus,Byte 0x42 ACK
29.034421250000001,SMBus,Byte 0x0A ACK
29.034600250000000,SMBus,Byte 0x05 ACK
29.034779250000000,SMBus,Byte 0x12 ACK
29.034901583333333,SMBus,Byte 0x86 ACK
29.035137249999998,SMBus,Byte 0x0F ACK
29.035259416666666,SMBus,Byte 0x86 ACK
29.035495250000000,SMBus,Byte 0x0F ACK
29.035617166666668,SMBus,Byte 0x86 ACK
29.035852333333334,SMBus,Byte 0x0F ACK
29.035975000000001,SMBus,Byte 0x86 ACK
29.036210333333333,SMBus,Byte 0x0F ACK
29.036399750000001,SMBus,PEC 0x1B OK
29.037958249999999,SMBus,Read address 0x05 ACK
29.038071750000000,SMBus,Bad PEC 0x18 should be 0x31
29.038316166666668,SMBus,Read address 0x0B ACK
29.038528750000001,SMBus,Byte 0x0A ACK
29.038703000000002,SMBus,Byte 0x09 ACK
29.038824666666667,SMBus,Byte 0xEB ACK
29.039059999999999,SMBus,Byte 0x1A ACK
29.039182499999999,SMBus,Byte 0xC1 ACK
29.039418000000001,SMBus,Byte 0x09 ACK
29.039597000000001,SMBus,Byte 0x15 ACK
29.039776000000000,SMBus,Byte 0x00 ACK
29.039954999999999,SMBus,Byte 0x00 ACK
29.040133999999998,SMBus,Byte 0x00 ACK
29.040313000000001,SMBus,Byte 0x00 ACK
29.040488249999999,SMBus,Bad PEC 0x5A should be 0xF1
